2023-08-16 09:36:41.732 - INFO  [         task-1] c.h.c.m.Mll710pApplication     : 发送查询请求，url：http://127.0.0.1:8080/tcp/downDataToClient，参数：okhttp3.internal._RequestBodyCommonKt$commonToRequestBody$1@3b431024
2023-08-16 09:36:41.737 - INFO  [         task-1] c.h.c.m.Mll710pApplication     : {"timestamp":"2023-08-16T01:36:41.528+00:00","status":400,"error":"Bad Request","path":"/tcp/downDataToClient"}
2023-08-16 09:36:51.752 - INFO  [         task-1] c.h.c.m.Mll710pApplication     : 发送查询请求，url：http://127.0.0.1:8080/tcp/downDataToClient，参数：okhttp3.internal._RequestBodyCommonKt$commonToRequestBody$1@5520498
2023-08-16 09:36:51.760 - INFO  [         task-1] c.h.c.m.Mll710pApplication     : {"timestamp":"2023-08-16T01:36:51.749+00:00","status":400,"error":"Bad Request","path":"/tcp/downDataToClient"}
2023-08-16 09:37:01.779 - INFO  [         task-1] c.h.c.m.Mll710pApplication     : 发送查询请求，url：http://127.0.0.1:8080/tcp/downDataToClient，参数：okhttp3.internal._RequestBodyCommonKt$commonToRequestBody$1@426d790a
2023-08-16 09:37:01.782 - INFO  [         task-1] c.h.c.m.Mll710pApplication     : {"timestamp":"2023-08-16T01:37:01.775+00:00","status":400,"error":"Bad Request","path":"/tcp/downDataToClient"}
2023-08-16 09:37:11.800 - INFO  [         task-1] c.h.c.m.Mll710pApplication     : 发送查询请求，url：http://127.0.0.1:8080/tcp/downDataToClient，参数：okhttp3.internal._RequestBodyCommonKt$commonToRequestBody$1@287dc483
2023-08-16 09:37:11.802 - INFO  [         task-1] c.h.c.m.Mll710pApplication     : {"timestamp":"2023-08-16T01:37:11.797+00:00","status":400,"error":"Bad Request","path":"/tcp/downDataToClient"}
2023-08-16 09:37:21.816 - INFO  [         task-1] c.h.c.m.Mll710pApplication     : 发送查询请求，url：http://127.0.0.1:8080/tcp/downDataToClient，参数：okhttp3.internal._RequestBodyCommonKt$commonToRequestBody$1@19779f92
2023-08-16 09:37:21.818 - INFO  [         task-1] c.h.c.m.Mll710pApplication     : {"timestamp":"2023-08-16T01:37:21.814+00:00","status":400,"error":"Bad Request","path":"/tcp/downDataToClient"}
2023-08-16 09:38:08.361 - INFO  [         task-1] c.h.c.m.Mll710pApplication     : 发送查询请求，url：http://127.0.0.1:8080/tcp/downDataToClient，参数：{"cmds":"[2103 00 10 00 0E C2 AB, 2203 00 10 00 0E C2 98, 2303 00 10 00 0E C3 49]","time":1692149887712,"client":"ML_L701P"}
2023-08-16 09:38:08.485 - INFO  [         task-1] c.h.c.m.Mll710pApplication     : {"timestamp":"2023-08-16T01:38:08.340+00:00","status":400,"error":"Bad Request","path":"/tcp/downDataToClient"}
2023-08-16 09:38:18.505 - INFO  [         task-1] c.h.c.m.Mll710pApplication     : 发送查询请求，url：http://127.0.0.1:8080/tcp/downDataToClient，参数：{"cmds":"[2103 00 10 00 0E C2 AB, 2203 00 10 00 0E C2 98, 2303 00 10 00 0E C3 49]","time":1692149898495,"client":"ML_L701P"}
2023-08-16 09:38:18.512 - INFO  [         task-1] c.h.c.m.Mll710pApplication     : {"timestamp":"2023-08-16T01:38:18.503+00:00","status":400,"error":"Bad Request","path":"/tcp/downDataToClient"}
2023-08-16 09:38:28.539 - INFO  [         task-1] c.h.c.m.Mll710pApplication     : 发送查询请求，url：http://127.0.0.1:8080/tcp/downDataToClient，参数：{"cmds":"[2103 00 10 00 0E C2 AB, 2203 00 10 00 0E C2 98, 2303 00 10 00 0E C3 49]","time":1692149908520,"client":"ML_L701P"}
2023-08-16 09:38:28.542 - INFO  [         task-1] c.h.c.m.Mll710pApplication     : {"timestamp":"2023-08-16T01:38:28.536+00:00","status":400,"error":"Bad Request","path":"/tcp/downDataToClient"}
2023-08-16 09:38:39.670 - INFO  [         task-1] c.h.c.m.Mll710pApplication     : 发送查询请求，url：http://127.0.0.1:8080/tcp/downDataToClient，参数：{"cmds":"[21 03 00 10 00 0E C2 AB, 22 03 00 10 00 0E C2 98, 23 03 00 10 00 0E C3 49]","time":1692149919062,"client":"ML_L701P"}
2023-08-16 09:38:39.732 - INFO  [         task-1] c.h.c.m.Mll710pApplication     : {"timestamp":"2023-08-16T01:38:39.650+00:00","status":400,"error":"Bad Request","path":"/tcp/downDataToClient"}
2023-08-16 09:38:49.809 - INFO  [         task-1] c.h.c.m.Mll710pApplication     : 发送查询请求，url：http://127.0.0.1:8080/tcp/downDataToClient，参数：{"cmds":"[21 03 00 10 00 0E C2 AB, 22 03 00 10 00 0E C2 98, 23 03 00 10 00 0E C3 49]","time":1692149929798,"client":"ML_L701P"}
2023-08-16 09:38:49.810 - INFO  [         task-1] c.h.c.m.Mll710pApplication     : {"timestamp":"2023-08-16T01:38:49.807+00:00","status":400,"error":"Bad Request","path":"/tcp/downDataToClient"}
2023-08-16 09:38:59.825 - INFO  [         task-1] c.h.c.m.Mll710pApplication     : 发送查询请求，url：http://127.0.0.1:8080/tcp/downDataToClient，参数：{"cmds":"[21 03 00 10 00 0E C2 AB, 22 03 00 10 00 0E C2 98, 23 03 00 10 00 0E C3 49]","time":1692149939815,"client":"ML_L701P"}
2023-08-16 09:38:59.830 - INFO  [         task-1] c.h.c.m.Mll710pApplication     : {"timestamp":"2023-08-16T01:38:59.823+00:00","status":400,"error":"Bad Request","path":"/tcp/downDataToClient"}
2023-08-16 09:39:09.845 - INFO  [         task-1] c.h.c.m.Mll710pApplication     : 发送查询请求，url：http://127.0.0.1:8080/tcp/downDataToClient，参数：{"cmds":"[21 03 00 10 00 0E C2 AB, 22 03 00 10 00 0E C2 98, 23 03 00 10 00 0E C3 49]","time":1692149949835,"client":"ML_L701P"}
2023-08-16 09:39:09.847 - INFO  [         task-1] c.h.c.m.Mll710pApplication     : {"timestamp":"2023-08-16T01:39:09.843+00:00","status":400,"error":"Bad Request","path":"/tcp/downDataToClient"}
2023-08-16 09:39:19.866 - INFO  [         task-1] c.h.c.m.Mll710pApplication     : 发送查询请求，url：http://127.0.0.1:8080/tcp/downDataToClient，参数：{"cmds":"[21 03 00 10 00 0E C2 AB, 22 03 00 10 00 0E C2 98, 23 03 00 10 00 0E C3 49]","time":1692149959851,"client":"ML_L701P"}
2023-08-16 09:39:19.868 - INFO  [         task-1] c.h.c.m.Mll710pApplication     : {"timestamp":"2023-08-16T01:39:19.864+00:00","status":400,"error":"Bad Request","path":"/tcp/downDataToClient"}
2023-08-16 09:39:29.900 - INFO  [         task-1] c.h.c.m.Mll710pApplication     : 发送查询请求，url：http://127.0.0.1:8080/tcp/downDataToClient，参数：{"cmds":"[21 03 00 10 00 0E C2 AB, 22 03 00 10 00 0E C2 98, 23 03 00 10 00 0E C3 49]","time":1692149969876,"client":"ML_L701P"}
2023-08-16 09:39:29.917 - INFO  [         task-1] c.h.c.m.Mll710pApplication     : {"timestamp":"2023-08-16T01:39:29.894+00:00","status":400,"error":"Bad Request","path":"/tcp/downDataToClient"}
2023-08-16 09:39:39.941 - INFO  [         task-1] c.h.c.m.Mll710pApplication     : 发送查询请求，url：http://127.0.0.1:8080/tcp/downDataToClient，参数：{"cmds":"[21 03 00 10 00 0E C2 AB, 22 03 00 10 00 0E C2 98, 23 03 00 10 00 0E C3 49]","time":1692149979932,"client":"ML_L701P"}
2023-08-16 09:39:39.942 - INFO  [         task-1] c.h.c.m.Mll710pApplication     : {"timestamp":"2023-08-16T01:39:39.939+00:00","status":400,"error":"Bad Request","path":"/tcp/downDataToClient"}
2023-08-16 09:39:49.957 - INFO  [         task-1] c.h.c.m.Mll710pApplication     : 发送查询请求，url：http://127.0.0.1:8080/tcp/downDataToClient，参数：{"cmds":"[21 03 00 10 00 0E C2 AB, 22 03 00 10 00 0E C2 98, 23 03 00 10 00 0E C3 49]","time":1692149989947,"client":"ML_L701P"}
2023-08-16 09:39:49.958 - INFO  [         task-1] c.h.c.m.Mll710pApplication     : {"timestamp":"2023-08-16T01:39:49.955+00:00","status":400,"error":"Bad Request","path":"/tcp/downDataToClient"}
2023-08-16 09:39:59.980 - INFO  [         task-1] c.h.c.m.Mll710pApplication     : 发送查询请求，url：http://127.0.0.1:8080/tcp/downDataToClient，参数：{"cmds":"[21 03 00 10 00 0E C2 AB, 22 03 00 10 00 0E C2 98, 23 03 00 10 00 0E C3 49]","time":1692149999970,"client":"ML_L701P"}
2023-08-16 09:39:59.985 - INFO  [         task-1] c.h.c.m.Mll710pApplication     : {"timestamp":"2023-08-16T01:39:59.978+00:00","status":400,"error":"Bad Request","path":"/tcp/downDataToClient"}
2023-08-16 09:40:10.010 - INFO  [         task-1] c.h.c.m.Mll710pApplication     : 发送查询请求，url：http://127.0.0.1:8080/tcp/downDataToClient，参数：{"cmds":"[21 03 00 10 00 0E C2 AB, 22 03 00 10 00 0E C2 98, 23 03 00 10 00 0E C3 49]","time":1692150009998,"client":"ML_L701P"}
2023-08-16 09:40:10.024 - INFO  [         task-1] c.h.c.m.Mll710pApplication     : {"timestamp":"2023-08-16T01:40:10.007+00:00","status":400,"error":"Bad Request","path":"/tcp/downDataToClient"}
2023-08-16 09:40:20.259 - INFO  [         task-1] c.h.c.m.Mll710pApplication     : 发送查询请求，url：http://127.0.0.1:8080/tcp/downDataToClient，参数：{"cmds":"[21 03 00 10 00 0E C2 AB, 22 03 00 10 00 0E C2 98, 23 03 00 10 00 0E C3 49]","time":1692150020248,"client":"ML_L701P"}
2023-08-16 09:40:20.260 - INFO  [         task-1] c.h.c.m.Mll710pApplication     : {"timestamp":"2023-08-16T01:40:20.257+00:00","status":400,"error":"Bad Request","path":"/tcp/downDataToClient"}
2023-08-16 09:40:36.875 - INFO  [         task-1] c.h.c.m.Mll710pApplication     : 发送查询请求，url：http://127.0.0.1:8080/tcp/downDataToClient，参数：{"cmds":"[15 03 00 10 00 0E C6 DF, 16 03 00 10 00 0E C6 EC, 17 03 00 10 00 0E C7 3D]","time":1692150036391,"client":"ML_L701P"}
2023-08-16 09:40:36.881 - INFO  [         task-1] c.h.c.m.Mll710pApplication     : {"timestamp":"2023-08-16T01:40:36.859+00:00","status":400,"error":"Bad Request","path":"/tcp/downDataToClient"}
2023-08-16 09:40:46.897 - INFO  [         task-1] c.h.c.m.Mll710pApplication     : 发送查询请求，url：http://127.0.0.1:8080/tcp/downDataToClient，参数：{"cmds":"[15 03 00 10 00 0E C6 DF, 16 03 00 10 00 0E C6 EC, 17 03 00 10 00 0E C7 3D]","time":1692150046887,"client":"ML_L701P"}
2023-08-16 09:40:46.903 - INFO  [         task-1] c.h.c.m.Mll710pApplication     : {"timestamp":"2023-08-16T01:40:46.895+00:00","status":400,"error":"Bad Request","path":"/tcp/downDataToClient"}
2023-08-16 09:40:56.918 - INFO  [         task-1] c.h.c.m.Mll710pApplication     : 发送查询请求，url：http://127.0.0.1:8080/tcp/downDataToClient，参数：{"cmds":"[15 03 00 10 00 0E C6 DF, 16 03 00 10 00 0E C6 EC, 17 03 00 10 00 0E C7 3D]","time":1692150056908,"client":"ML_L701P"}
2023-08-16 09:40:56.920 - INFO  [         task-1] c.h.c.m.Mll710pApplication     : {"timestamp":"2023-08-16T01:40:56.916+00:00","status":400,"error":"Bad Request","path":"/tcp/downDataToClient"}
2023-08-16 09:41:06.934 - INFO  [         task-1] c.h.c.m.Mll710pApplication     : 发送查询请求，url：http://127.0.0.1:8080/tcp/downDataToClient，参数：{"cmds":"[15 03 00 10 00 0E C6 DF, 16 03 00 10 00 0E C6 EC, 17 03 00 10 00 0E C7 3D]","time":1692150066924,"client":"ML_L701P"}
2023-08-16 09:41:06.939 - INFO  [         task-1] c.h.c.m.Mll710pApplication     : {"timestamp":"2023-08-16T01:41:06.932+00:00","status":400,"error":"Bad Request","path":"/tcp/downDataToClient"}
2023-08-16 09:41:16.959 - INFO  [         task-1] c.h.c.m.Mll710pApplication     : 发送查询请求，url：http://127.0.0.1:8080/tcp/downDataToClient，参数：{"cmds":"[15 03 00 10 00 0E C6 DF, 16 03 00 10 00 0E C6 EC, 17 03 00 10 00 0E C7 3D]","time":1692150076947,"client":"ML_L701P"}
2023-08-16 09:41:16.960 - INFO  [         task-1] c.h.c.m.Mll710pApplication     : {"timestamp":"2023-08-16T01:41:16.956+00:00","status":400,"error":"Bad Request","path":"/tcp/downDataToClient"}
2023-08-16 09:41:26.978 - INFO  [         task-1] c.h.c.m.Mll710pApplication     : 发送查询请求，url：http://127.0.0.1:8080/tcp/downDataToClient，参数：{"cmds":"[15 03 00 10 00 0E C6 DF, 16 03 00 10 00 0E C6 EC, 17 03 00 10 00 0E C7 3D]","time":1692150086967,"client":"ML_L701P"}
2023-08-16 09:41:26.984 - INFO  [         task-1] c.h.c.m.Mll710pApplication     : {"timestamp":"2023-08-16T01:41:26.975+00:00","status":400,"error":"Bad Request","path":"/tcp/downDataToClient"}
2023-08-16 09:41:36.998 - INFO  [         task-1] c.h.c.m.Mll710pApplication     : 发送查询请求，url：http://127.0.0.1:8080/tcp/downDataToClient，参数：{"cmds":"[15 03 00 10 00 0E C6 DF, 16 03 00 10 00 0E C6 EC, 17 03 00 10 00 0E C7 3D]","time":1692150096989,"client":"ML_L701P"}
2023-08-16 09:41:36.999 - INFO  [         task-1] c.h.c.m.Mll710pApplication     : {"timestamp":"2023-08-16T01:41:36.996+00:00","status":400,"error":"Bad Request","path":"/tcp/downDataToClient"}
2023-08-16 09:41:47.010 - INFO  [         task-1] c.h.c.m.Mll710pApplication     : 发送查询请求，url：http://127.0.0.1:8080/tcp/downDataToClient，参数：{"cmds":"[15 03 00 10 00 0E C6 DF, 16 03 00 10 00 0E C6 EC, 17 03 00 10 00 0E C7 3D]","time":1692150107003,"client":"ML_L701P"}
2023-08-16 09:41:47.012 - INFO  [         task-1] c.h.c.m.Mll710pApplication     : {"timestamp":"2023-08-16T01:41:47.009+00:00","status":400,"error":"Bad Request","path":"/tcp/downDataToClient"}
2023-08-16 09:41:57.022 - INFO  [         task-1] c.h.c.m.Mll710pApplication     : 发送查询请求，url：http://127.0.0.1:8080/tcp/downDataToClient，参数：{"cmds":"[15 03 00 10 00 0E C6 DF, 16 03 00 10 00 0E C6 EC, 17 03 00 10 00 0E C7 3D]","time":1692150117014,"client":"ML_L701P"}
2023-08-16 09:41:57.024 - INFO  [         task-1] c.h.c.m.Mll710pApplication     : {"timestamp":"2023-08-16T01:41:57.021+00:00","status":400,"error":"Bad Request","path":"/tcp/downDataToClient"}
2023-08-16 09:42:07.038 - INFO  [         task-1] c.h.c.m.Mll710pApplication     : 发送查询请求，url：http://127.0.0.1:8080/tcp/downDataToClient，参数：{"cmds":"[15 03 00 10 00 0E C6 DF, 16 03 00 10 00 0E C6 EC, 17 03 00 10 00 0E C7 3D]","time":1692150127030,"client":"ML_L701P"}
2023-08-16 09:42:07.040 - INFO  [         task-1] c.h.c.m.Mll710pApplication     : {"timestamp":"2023-08-16T01:42:07.036+00:00","status":400,"error":"Bad Request","path":"/tcp/downDataToClient"}
2023-08-16 09:42:17.058 - INFO  [         task-1] c.h.c.m.Mll710pApplication     : 发送查询请求，url：http://127.0.0.1:8080/tcp/downDataToClient，参数：{"cmds":"[15 03 00 10 00 0E C6 DF, 16 03 00 10 00 0E C6 EC, 17 03 00 10 00 0E C7 3D]","time":1692150137045,"client":"ML_L701P"}
2023-08-16 09:42:17.060 - INFO  [         task-1] c.h.c.m.Mll710pApplication     : {"timestamp":"2023-08-16T01:42:17.056+00:00","status":400,"error":"Bad Request","path":"/tcp/downDataToClient"}
2023-08-16 09:42:27.072 - INFO  [         task-1] c.h.c.m.Mll710pApplication     : 发送查询请求，url：http://127.0.0.1:8080/tcp/downDataToClient，参数：{"cmds":"[15 03 00 10 00 0E C6 DF, 16 03 00 10 00 0E C6 EC, 17 03 00 10 00 0E C7 3D]","time":1692150147064,"client":"ML_L701P"}
2023-08-16 09:42:27.075 - INFO  [         task-1] c.h.c.m.Mll710pApplication     : {"timestamp":"2023-08-16T01:42:27.071+00:00","status":400,"error":"Bad Request","path":"/tcp/downDataToClient"}
2023-08-16 09:42:37.091 - INFO  [         task-1] c.h.c.m.Mll710pApplication     : 发送查询请求，url：http://127.0.0.1:8080/tcp/downDataToClient，参数：{"cmds":"[15 03 00 10 00 0E C6 DF, 16 03 00 10 00 0E C6 EC, 17 03 00 10 00 0E C7 3D]","time":1692150157081,"client":"ML_L701P"}
2023-08-16 09:42:37.093 - INFO  [         task-1] c.h.c.m.Mll710pApplication     : {"timestamp":"2023-08-16T01:42:37.089+00:00","status":400,"error":"Bad Request","path":"/tcp/downDataToClient"}
2023-08-16 09:42:47.109 - INFO  [         task-1] c.h.c.m.Mll710pApplication     : 发送查询请求，url：http://127.0.0.1:8080/tcp/downDataToClient，参数：{"cmds":"[15 03 00 10 00 0E C6 DF, 16 03 00 10 00 0E C6 EC, 17 03 00 10 00 0E C7 3D]","time":1692150167098,"client":"ML_L701P"}
2023-08-16 09:42:47.111 - INFO  [         task-1] c.h.c.m.Mll710pApplication     : {"timestamp":"2023-08-16T01:42:47.106+00:00","status":400,"error":"Bad Request","path":"/tcp/downDataToClient"}
2023-08-16 09:42:57.125 - INFO  [         task-1] c.h.c.m.Mll710pApplication     : 发送查询请求，url：http://127.0.0.1:8080/tcp/downDataToClient，参数：{"cmds":"[15 03 00 10 00 0E C6 DF, 16 03 00 10 00 0E C6 EC, 17 03 00 10 00 0E C7 3D]","time":1692150177116,"client":"ML_L701P"}
2023-08-16 09:42:57.127 - INFO  [         task-1] c.h.c.m.Mll710pApplication     : {"timestamp":"2023-08-16T01:42:57.123+00:00","status":400,"error":"Bad Request","path":"/tcp/downDataToClient"}
2023-08-16 09:43:07.150 - INFO  [         task-1] c.h.c.m.Mll710pApplication     : 发送查询请求，url：http://127.0.0.1:8080/tcp/downDataToClient，参数：{"cmds":"[15 03 00 10 00 0E C6 DF, 16 03 00 10 00 0E C6 EC, 17 03 00 10 00 0E C7 3D]","time":1692150187136,"client":"ML_L701P"}
2023-08-16 09:43:07.159 - INFO  [         task-1] c.h.c.m.Mll710pApplication     : {"timestamp":"2023-08-16T01:43:07.147+00:00","status":400,"error":"Bad Request","path":"/tcp/downDataToClient"}
2023-08-16 09:43:17.174 - INFO  [         task-1] c.h.c.m.Mll710pApplication     : 发送查询请求，url：http://127.0.0.1:8080/tcp/downDataToClient，参数：{"cmds":"[15 03 00 10 00 0E C6 DF, 16 03 00 10 00 0E C6 EC, 17 03 00 10 00 0E C7 3D]","time":1692150197165,"client":"ML_L701P"}
2023-08-16 09:43:17.175 - INFO  [         task-1] c.h.c.m.Mll710pApplication     : {"timestamp":"2023-08-16T01:43:17.172+00:00","status":400,"error":"Bad Request","path":"/tcp/downDataToClient"}
2023-08-16 09:43:27.189 - INFO  [         task-1] c.h.c.m.Mll710pApplication     : 发送查询请求，url：http://127.0.0.1:8080/tcp/downDataToClient，参数：{"cmds":"[15 03 00 10 00 0E C6 DF, 16 03 00 10 00 0E C6 EC, 17 03 00 10 00 0E C7 3D]","time":1692150207180,"client":"ML_L701P"}
2023-08-16 09:43:27.191 - INFO  [         task-1] c.h.c.m.Mll710pApplication     : {"timestamp":"2023-08-16T01:43:27.187+00:00","status":400,"error":"Bad Request","path":"/tcp/downDataToClient"}
2023-08-16 09:43:37.205 - INFO  [         task-1] c.h.c.m.Mll710pApplication     : 发送查询请求，url：http://127.0.0.1:8080/tcp/downDataToClient，参数：{"cmds":"[15 03 00 10 00 0E C6 DF, 16 03 00 10 00 0E C6 EC, 17 03 00 10 00 0E C7 3D]","time":1692150217196,"client":"ML_L701P"}
2023-08-16 09:43:37.206 - INFO  [         task-1] c.h.c.m.Mll710pApplication     : {"timestamp":"2023-08-16T01:43:37.203+00:00","status":400,"error":"Bad Request","path":"/tcp/downDataToClient"}
2023-08-16 09:43:47.219 - INFO  [         task-1] c.h.c.m.Mll710pApplication     : 发送查询请求，url：http://127.0.0.1:8080/tcp/downDataToClient，参数：{"cmds":"[15 03 00 10 00 0E C6 DF, 16 03 00 10 00 0E C6 EC, 17 03 00 10 00 0E C7 3D]","time":1692150227211,"client":"ML_L701P"}
2023-08-16 09:43:47.220 - INFO  [         task-1] c.h.c.m.Mll710pApplication     : {"timestamp":"2023-08-16T01:43:47.217+00:00","status":400,"error":"Bad Request","path":"/tcp/downDataToClient"}
2023-08-16 09:43:57.232 - INFO  [         task-1] c.h.c.m.Mll710pApplication     : 发送查询请求，url：http://127.0.0.1:8080/tcp/downDataToClient，参数：{"cmds":"[15 03 00 10 00 0E C6 DF, 16 03 00 10 00 0E C6 EC, 17 03 00 10 00 0E C7 3D]","time":1692150237223,"client":"ML_L701P"}
2023-08-16 09:43:57.233 - INFO  [         task-1] c.h.c.m.Mll710pApplication     : {"timestamp":"2023-08-16T01:43:57.230+00:00","status":400,"error":"Bad Request","path":"/tcp/downDataToClient"}
2023-08-16 09:44:07.247 - INFO  [         task-1] c.h.c.m.Mll710pApplication     : 发送查询请求，url：http://127.0.0.1:8080/tcp/downDataToClient，参数：{"cmds":"[15 03 00 10 00 0E C6 DF, 16 03 00 10 00 0E C6 EC, 17 03 00 10 00 0E C7 3D]","time":1692150247239,"client":"ML_L701P"}
2023-08-16 09:44:07.248 - INFO  [         task-1] c.h.c.m.Mll710pApplication     : {"timestamp":"2023-08-16T01:44:07.244+00:00","status":400,"error":"Bad Request","path":"/tcp/downDataToClient"}
2023-08-16 09:44:17.261 - INFO  [         task-1] c.h.c.m.Mll710pApplication     : 发送查询请求，url：http://127.0.0.1:8080/tcp/downDataToClient，参数：{"cmds":"[15 03 00 10 00 0E C6 DF, 16 03 00 10 00 0E C6 EC, 17 03 00 10 00 0E C7 3D]","time":1692150257254,"client":"ML_L701P"}
2023-08-16 09:44:17.263 - INFO  [         task-1] c.h.c.m.Mll710pApplication     : {"timestamp":"2023-08-16T01:44:17.259+00:00","status":400,"error":"Bad Request","path":"/tcp/downDataToClient"}
2023-08-16 09:44:27.274 - INFO  [         task-1] c.h.c.m.Mll710pApplication     : 发送查询请求，url：http://127.0.0.1:8080/tcp/downDataToClient，参数：{"cmds":"[15 03 00 10 00 0E C6 DF, 16 03 00 10 00 0E C6 EC, 17 03 00 10 00 0E C7 3D]","time":1692150267267,"client":"ML_L701P"}
2023-08-16 09:44:27.275 - INFO  [         task-1] c.h.c.m.Mll710pApplication     : {"timestamp":"2023-08-16T01:44:27.273+00:00","status":400,"error":"Bad Request","path":"/tcp/downDataToClient"}
2023-08-16 09:44:37.314 - INFO  [         task-1] c.h.c.m.Mll710pApplication     : 发送查询请求，url：http://127.0.0.1:8080/tcp/downDataToClient，参数：{"cmds":"[15 03 00 10 00 0E C6 DF, 16 03 00 10 00 0E C6 EC, 17 03 00 10 00 0E C7 3D]","time":1692150277283,"client":"ML_L701P"}
2023-08-16 09:44:37.325 - INFO  [         task-1] c.h.c.m.Mll710pApplication     : {"timestamp":"2023-08-16T01:44:37.307+00:00","status":400,"error":"Bad Request","path":"/tcp/downDataToClient"}
2023-08-16 09:44:47.618 - INFO  [         task-1] c.h.c.m.Mll710pApplication     : 发送查询请求，url：http://127.0.0.1:8080/tcp/downDataToClient，参数：{"cmds":"[15 03 00 10 00 0E C6 DF, 16 03 00 10 00 0E C6 EC, 17 03 00 10 00 0E C7 3D]","time":1692150287607,"client":"ML_L701P"}
2023-08-16 09:44:47.619 - INFO  [         task-1] c.h.c.m.Mll710pApplication     : {"timestamp":"2023-08-16T01:44:47.616+00:00","status":400,"error":"Bad Request","path":"/tcp/downDataToClient"}
2023-08-16 09:44:57.632 - INFO  [         task-1] c.h.c.m.Mll710pApplication     : 发送查询请求，url：http://127.0.0.1:8080/tcp/downDataToClient，参数：{"cmds":"[15 03 00 10 00 0E C6 DF, 16 03 00 10 00 0E C6 EC, 17 03 00 10 00 0E C7 3D]","time":1692150297625,"client":"ML_L701P"}
2023-08-16 09:44:57.634 - INFO  [         task-1] c.h.c.m.Mll710pApplication     : {"timestamp":"2023-08-16T01:44:57.630+00:00","status":400,"error":"Bad Request","path":"/tcp/downDataToClient"}
2023-08-16 09:48:34.646 - INFO  [         task-1] c.h.c.m.Mll710pApplication     : 发送查询请求，url：http://127.0.0.1:8080/tcp/downDataToClient，参数：{"cmds":"[15 03 00 10 00 0E C6 DF, 16 03 00 10 00 0E C6 EC, 17 03 00 10 00 0E C7 3D]","time":1692150514183,"client":"ML_L701P","ip":"10.11.21.99","port":10001}
2023-08-16 09:48:34.742 - INFO  [         task-1] c.h.c.m.Mll710pApplication     : {"timestamp":"2023-08-16T01:48:34.622+00:00","status":400,"error":"Bad Request","path":"/tcp/downDataToClient"}
2023-08-16 09:48:44.756 - INFO  [         task-1] c.h.c.m.Mll710pApplication     : 发送查询请求，url：http://127.0.0.1:8080/tcp/downDataToClient，参数：{"cmds":"[15 03 00 10 00 0E C6 DF, 16 03 00 10 00 0E C6 EC, 17 03 00 10 00 0E C7 3D]","time":1692150524747,"client":"ML_L701P","ip":"10.11.21.99","port":10001}
2023-08-16 09:48:44.760 - INFO  [         task-1] c.h.c.m.Mll710pApplication     : {"timestamp":"2023-08-16T01:48:44.753+00:00","status":400,"error":"Bad Request","path":"/tcp/downDataToClient"}
2023-08-16 09:48:54.775 - INFO  [         task-1] c.h.c.m.Mll710pApplication     : 发送查询请求，url：http://127.0.0.1:8080/tcp/downDataToClient，参数：{"cmds":"[15 03 00 10 00 0E C6 DF, 16 03 00 10 00 0E C6 EC, 17 03 00 10 00 0E C7 3D]","time":1692150534766,"client":"ML_L701P","ip":"10.11.21.99","port":10001}
2023-08-16 09:48:54.776 - INFO  [         task-1] c.h.c.m.Mll710pApplication     : {"timestamp":"2023-08-16T01:48:54.773+00:00","status":400,"error":"Bad Request","path":"/tcp/downDataToClient"}
2023-08-16 09:49:04.792 - INFO  [         task-1] c.h.c.m.Mll710pApplication     : 发送查询请求，url：http://127.0.0.1:8080/tcp/downDataToClient，参数：{"cmds":"[15 03 00 10 00 0E C6 DF, 16 03 00 10 00 0E C6 EC, 17 03 00 10 00 0E C7 3D]","time":1692150544782,"client":"ML_L701P","ip":"10.11.21.99","port":10001}
2023-08-16 09:49:04.797 - INFO  [         task-1] c.h.c.m.Mll710pApplication     : {"timestamp":"2023-08-16T01:49:04.790+00:00","status":400,"error":"Bad Request","path":"/tcp/downDataToClient"}
2023-08-16 09:49:14.814 - INFO  [         task-1] c.h.c.m.Mll710pApplication     : 发送查询请求，url：http://127.0.0.1:8080/tcp/downDataToClient，参数：{"cmds":"[15 03 00 10 00 0E C6 DF, 16 03 00 10 00 0E C6 EC, 17 03 00 10 00 0E C7 3D]","time":1692150554803,"client":"ML_L701P","ip":"10.11.21.99","port":10001}
2023-08-16 09:49:14.815 - INFO  [         task-1] c.h.c.m.Mll710pApplication     : {"timestamp":"2023-08-16T01:49:14.811+00:00","status":400,"error":"Bad Request","path":"/tcp/downDataToClient"}
2023-08-16 09:49:24.838 - INFO  [         task-1] c.h.c.m.Mll710pApplication     : 发送查询请求，url：http://127.0.0.1:8080/tcp/downDataToClient，参数：{"cmds":"[15 03 00 10 00 0E C6 DF, 16 03 00 10 00 0E C6 EC, 17 03 00 10 00 0E C7 3D]","time":1692150564823,"client":"ML_L701P","ip":"10.11.21.99","port":10001}
2023-08-16 09:49:24.839 - INFO  [         task-1] c.h.c.m.Mll710pApplication     : {"timestamp":"2023-08-16T01:49:24.835+00:00","status":400,"error":"Bad Request","path":"/tcp/downDataToClient"}
2023-08-16 09:49:35.049 - INFO  [         task-1] c.h.c.m.Mll710pApplication     : 发送查询请求，url：http://127.0.0.1:8080/tcp/downDataToClient，参数：{"cmds":"[15 03 00 10 00 0E C6 DF, 16 03 00 10 00 0E C6 EC, 17 03 00 10 00 0E C7 3D]","time":1692150574865,"client":"ML_L701P","ip":"10.11.21.99","port":10001}
2023-08-16 09:49:35.051 - INFO  [         task-1] c.h.c.m.Mll710pApplication     : {"timestamp":"2023-08-16T01:49:35.046+00:00","status":400,"error":"Bad Request","path":"/tcp/downDataToClient"}
2023-08-16 09:49:45.064 - INFO  [         task-1] c.h.c.m.Mll710pApplication     : 发送查询请求，url：http://127.0.0.1:8080/tcp/downDataToClient，参数：{"cmds":"[15 03 00 10 00 0E C6 DF, 16 03 00 10 00 0E C6 EC, 17 03 00 10 00 0E C7 3D]","time":1692150585056,"client":"ML_L701P","ip":"10.11.21.99","port":10001}
2023-08-16 09:49:45.065 - INFO  [         task-1] c.h.c.m.Mll710pApplication     : {"timestamp":"2023-08-16T01:49:45.062+00:00","status":400,"error":"Bad Request","path":"/tcp/downDataToClient"}
2023-08-16 09:49:55.077 - INFO  [         task-1] c.h.c.m.Mll710pApplication     : 发送查询请求，url：http://127.0.0.1:8080/tcp/downDataToClient，参数：{"cmds":"[15 03 00 10 00 0E C6 DF, 16 03 00 10 00 0E C6 EC, 17 03 00 10 00 0E C7 3D]","time":1692150595069,"client":"ML_L701P","ip":"10.11.21.99","port":10001}
2023-08-16 09:49:55.079 - INFO  [         task-1] c.h.c.m.Mll710pApplication     : {"timestamp":"2023-08-16T01:49:55.075+00:00","status":400,"error":"Bad Request","path":"/tcp/downDataToClient"}
2023-08-16 09:50:10.677 - INFO  [         task-1] c.h.c.m.Mll710pApplication     : 发送查询数据请求!
2023-08-16 09:50:12.010 - INFO  [         task-1] c.h.c.m.Mll710pApplication     : 发送查询请求，url：http://127.0.0.1:8080/tcp/downDataToClient，参数：{"cmds":"[15 03 00 10 00 0E C6 DF, 16 03 00 10 00 0E C6 EC, 17 03 00 10 00 0E C7 3D]","time":1692150611463,"client":"ML_L701P","ip":"10.11.21.99","port":10001}
2023-08-16 09:50:12.019 - INFO  [         task-1] c.h.c.m.Mll710pApplication     : {"timestamp":"2023-08-16T01:50:11.996+00:00","status":400,"error":"Bad Request","path":"/tcp/downDataToClient"}
2023-08-16 09:50:22.026 - INFO  [         task-1] c.h.c.m.Mll710pApplication     : 发送查询数据请求!完成
2023-08-16 09:50:22.027 - INFO  [         task-1] c.h.c.m.Mll710pApplication     : 发送查询数据请求!
2023-08-16 09:50:22.046 - INFO  [         task-1] c.h.c.m.Mll710pApplication     : 发送查询请求，url：http://127.0.0.1:8080/tcp/downDataToClient，参数：{"cmds":"[15 03 00 10 00 0E C6 DF, 16 03 00 10 00 0E C6 EC, 17 03 00 10 00 0E C7 3D]","time":1692150622030,"client":"ML_L701P","ip":"10.11.21.99","port":10001}
2023-08-16 09:50:22.048 - INFO  [         task-1] c.h.c.m.Mll710pApplication     : {"timestamp":"2023-08-16T01:50:22.043+00:00","status":400,"error":"Bad Request","path":"/tcp/downDataToClient"}
2023-08-16 09:50:32.048 - INFO  [         task-1] c.h.c.m.Mll710pApplication     : 发送查询数据请求!完成
2023-08-16 09:50:32.050 - INFO  [         task-1] c.h.c.m.Mll710pApplication     : 发送查询数据请求!
2023-08-16 09:50:32.071 - INFO  [         task-1] c.h.c.m.Mll710pApplication     : 发送查询请求，url：http://127.0.0.1:8080/tcp/downDataToClient，参数：{"cmds":"[15 03 00 10 00 0E C6 DF, 16 03 00 10 00 0E C6 EC, 17 03 00 10 00 0E C7 3D]","time":1692150632053,"client":"ML_L701P","ip":"10.11.21.99","port":10001}
2023-08-16 09:50:32.110 - INFO  [         task-1] c.h.c.m.Mll710pApplication     : {"timestamp":"2023-08-16T01:50:32.066+00:00","status":400,"error":"Bad Request","path":"/tcp/downDataToClient"}
2023-08-16 09:50:42.153 - INFO  [         task-1] c.h.c.m.Mll710pApplication     : 发送查询数据请求!完成
2023-08-16 09:50:42.154 - INFO  [         task-1] c.h.c.m.Mll710pApplication     : 发送查询数据请求!
2023-08-16 09:50:42.165 - INFO  [         task-1] c.h.c.m.Mll710pApplication     : 发送查询请求，url：http://127.0.0.1:8080/tcp/downDataToClient，参数：{"cmds":"[15 03 00 10 00 0E C6 DF, 16 03 00 10 00 0E C6 EC, 17 03 00 10 00 0E C7 3D]","time":1692150642157,"client":"ML_L701P","ip":"10.11.21.99","port":10001}
2023-08-16 09:50:42.167 - INFO  [         task-1] c.h.c.m.Mll710pApplication     : {"timestamp":"2023-08-16T01:50:42.164+00:00","status":400,"error":"Bad Request","path":"/tcp/downDataToClient"}
2023-08-16 09:50:52.169 - INFO  [         task-1] c.h.c.m.Mll710pApplication     : 发送查询数据请求!完成
2023-08-16 09:50:52.170 - INFO  [         task-1] c.h.c.m.Mll710pApplication     : 发送查询数据请求!
2023-08-16 09:50:52.188 - INFO  [         task-1] c.h.c.m.Mll710pApplication     : 发送查询请求，url：http://127.0.0.1:8080/tcp/downDataToClient，参数：{"cmds":"[15 03 00 10 00 0E C6 DF, 16 03 00 10 00 0E C6 EC, 17 03 00 10 00 0E C7 3D]","time":1692150652173,"client":"ML_L701P","ip":"10.11.21.99","port":10001}
2023-08-16 09:50:52.192 - INFO  [         task-1] c.h.c.m.Mll710pApplication     : {"timestamp":"2023-08-16T01:50:52.186+00:00","status":400,"error":"Bad Request","path":"/tcp/downDataToClient"}
2023-08-16 09:51:02.194 - INFO  [         task-1] c.h.c.m.Mll710pApplication     : 发送查询数据请求!完成
2023-08-16 09:51:02.195 - INFO  [         task-1] c.h.c.m.Mll710pApplication     : 发送查询数据请求!
2023-08-16 09:51:02.210 - INFO  [         task-1] c.h.c.m.Mll710pApplication     : 发送查询请求，url：http://127.0.0.1:8080/tcp/downDataToClient，参数：{"cmds":"[15 03 00 10 00 0E C6 DF, 16 03 00 10 00 0E C6 EC, 17 03 00 10 00 0E C7 3D]","time":1692150662201,"client":"ML_L701P","ip":"10.11.21.99","port":10001}
2023-08-16 09:51:02.212 - INFO  [         task-1] c.h.c.m.Mll710pApplication     : {"timestamp":"2023-08-16T01:51:02.209+00:00","status":400,"error":"Bad Request","path":"/tcp/downDataToClient"}
2023-08-16 09:51:12.213 - INFO  [         task-1] c.h.c.m.Mll710pApplication     : 发送查询数据请求!完成
2023-08-16 09:51:12.215 - INFO  [         task-1] c.h.c.m.Mll710pApplication     : 发送查询数据请求!
2023-08-16 09:51:12.229 - INFO  [         task-1] c.h.c.m.Mll710pApplication     : 发送查询请求，url：http://127.0.0.1:8080/tcp/downDataToClient，参数：{"cmds":"[15 03 00 10 00 0E C6 DF, 16 03 00 10 00 0E C6 EC, 17 03 00 10 00 0E C7 3D]","time":1692150672218,"client":"ML_L701P","ip":"10.11.21.99","port":10001}
2023-08-16 09:51:12.231 - INFO  [         task-1] c.h.c.m.Mll710pApplication     : {"timestamp":"2023-08-16T01:51:12.227+00:00","status":400,"error":"Bad Request","path":"/tcp/downDataToClient"}
2023-08-16 09:51:22.236 - INFO  [         task-1] c.h.c.m.Mll710pApplication     : 发送查询数据请求!完成
2023-08-16 09:51:22.237 - INFO  [         task-1] c.h.c.m.Mll710pApplication     : 发送查询数据请求!
2023-08-16 09:51:22.252 - INFO  [         task-1] c.h.c.m.Mll710pApplication     : 发送查询请求，url：http://127.0.0.1:8080/tcp/downDataToClient，参数：{"cmds":"[15 03 00 10 00 0E C6 DF, 16 03 00 10 00 0E C6 EC, 17 03 00 10 00 0E C7 3D]","time":1692150682241,"client":"ML_L701P","ip":"10.11.21.99","port":10001}
2023-08-16 09:51:22.257 - INFO  [         task-1] c.h.c.m.Mll710pApplication     : {"timestamp":"2023-08-16T01:51:22.250+00:00","status":400,"error":"Bad Request","path":"/tcp/downDataToClient"}
2023-08-16 09:51:32.259 - INFO  [         task-1] c.h.c.m.Mll710pApplication     : 发送查询数据请求!完成
2023-08-16 09:51:32.260 - INFO  [         task-1] c.h.c.m.Mll710pApplication     : 发送查询数据请求!
2023-08-16 09:51:32.276 - INFO  [         task-1] c.h.c.m.Mll710pApplication     : 发送查询请求，url：http://127.0.0.1:8080/tcp/downDataToClient，参数：{"cmds":"[15 03 00 10 00 0E C6 DF, 16 03 00 10 00 0E C6 EC, 17 03 00 10 00 0E C7 3D]","time":1692150692264,"client":"ML_L701P","ip":"10.11.21.99","port":10001}
2023-08-16 09:51:32.282 - INFO  [         task-1] c.h.c.m.Mll710pApplication     : {"timestamp":"2023-08-16T01:51:32.273+00:00","status":400,"error":"Bad Request","path":"/tcp/downDataToClient"}
2023-08-16 09:51:42.284 - INFO  [         task-1] c.h.c.m.Mll710pApplication     : 发送查询数据请求!完成
2023-08-16 09:51:42.284 - INFO  [         task-1] c.h.c.m.Mll710pApplication     : 发送查询数据请求!
2023-08-16 09:51:42.301 - INFO  [         task-1] c.h.c.m.Mll710pApplication     : 发送查询请求，url：http://127.0.0.1:8080/tcp/downDataToClient，参数：{"cmds":"[15 03 00 10 00 0E C6 DF, 16 03 00 10 00 0E C6 EC, 17 03 00 10 00 0E C7 3D]","time":1692150702289,"client":"ML_L701P","ip":"10.11.21.99","port":10001}
2023-08-16 09:51:42.308 - INFO  [         task-1] c.h.c.m.Mll710pApplication     : {"timestamp":"2023-08-16T01:51:42.298+00:00","status":400,"error":"Bad Request","path":"/tcp/downDataToClient"}
2023-08-16 09:51:52.310 - INFO  [         task-1] c.h.c.m.Mll710pApplication     : 发送查询数据请求!完成
2023-08-16 09:51:52.310 - INFO  [         task-1] c.h.c.m.Mll710pApplication     : 发送查询数据请求!
2023-08-16 09:51:52.322 - INFO  [         task-1] c.h.c.m.Mll710pApplication     : 发送查询请求，url：http://127.0.0.1:8080/tcp/downDataToClient，参数：{"cmds":"[15 03 00 10 00 0E C6 DF, 16 03 00 10 00 0E C6 EC, 17 03 00 10 00 0E C7 3D]","time":1692150712314,"client":"ML_L701P","ip":"10.11.21.99","port":10001}
2023-08-16 09:51:52.327 - INFO  [         task-1] c.h.c.m.Mll710pApplication     : {"timestamp":"2023-08-16T01:51:52.320+00:00","status":400,"error":"Bad Request","path":"/tcp/downDataToClient"}
2023-08-16 09:52:02.329 - INFO  [         task-1] c.h.c.m.Mll710pApplication     : 发送查询数据请求!完成
2023-08-16 09:52:02.330 - INFO  [         task-1] c.h.c.m.Mll710pApplication     : 发送查询数据请求!
2023-08-16 09:52:02.343 - INFO  [         task-1] c.h.c.m.Mll710pApplication     : 发送查询请求，url：http://127.0.0.1:8080/tcp/downDataToClient，参数：{"cmds":"[15 03 00 10 00 0E C6 DF, 16 03 00 10 00 0E C6 EC, 17 03 00 10 00 0E C7 3D]","time":1692150722334,"client":"ML_L701P","ip":"10.11.21.99","port":10001}
2023-08-16 09:52:02.348 - INFO  [         task-1] c.h.c.m.Mll710pApplication     : {"timestamp":"2023-08-16T01:52:02.342+00:00","status":400,"error":"Bad Request","path":"/tcp/downDataToClient"}
2023-08-16 09:52:12.351 - INFO  [         task-1] c.h.c.m.Mll710pApplication     : 发送查询数据请求!完成
2023-08-16 09:52:12.352 - INFO  [         task-1] c.h.c.m.Mll710pApplication     : 发送查询数据请求!
2023-08-16 09:52:12.367 - INFO  [         task-1] c.h.c.m.Mll710pApplication     : 发送查询请求，url：http://127.0.0.1:8080/tcp/downDataToClient，参数：{"cmds":"[15 03 00 10 00 0E C6 DF, 16 03 00 10 00 0E C6 EC, 17 03 00 10 00 0E C7 3D]","time":1692150732357,"client":"ML_L701P","ip":"10.11.21.99","port":10001}
2023-08-16 09:52:12.369 - INFO  [         task-1] c.h.c.m.Mll710pApplication     : {"timestamp":"2023-08-16T01:52:12.364+00:00","status":400,"error":"Bad Request","path":"/tcp/downDataToClient"}
2023-08-16 09:52:22.374 - INFO  [         task-1] c.h.c.m.Mll710pApplication     : 发送查询数据请求!完成
2023-08-16 09:52:22.375 - INFO  [         task-1] c.h.c.m.Mll710pApplication     : 发送查询数据请求!
2023-08-16 09:52:22.388 - INFO  [         task-1] c.h.c.m.Mll710pApplication     : 发送查询请求，url：http://127.0.0.1:8080/tcp/downDataToClient，参数：{"cmds":"[15 03 00 10 00 0E C6 DF, 16 03 00 10 00 0E C6 EC, 17 03 00 10 00 0E C7 3D]","time":1692150742378,"client":"ML_L701P","ip":"10.11.21.99","port":10001}
2023-08-16 09:52:22.389 - INFO  [         task-1] c.h.c.m.Mll710pApplication     : {"timestamp":"2023-08-16T01:52:22.387+00:00","status":400,"error":"Bad Request","path":"/tcp/downDataToClient"}
2023-08-16 09:52:32.396 - INFO  [         task-1] c.h.c.m.Mll710pApplication     : 发送查询数据请求!完成
2023-08-16 09:52:32.397 - INFO  [         task-1] c.h.c.m.Mll710pApplication     : 发送查询数据请求!
2023-08-16 09:52:32.409 - INFO  [         task-1] c.h.c.m.Mll710pApplication     : 发送查询请求，url：http://127.0.0.1:8080/tcp/downDataToClient，参数：{"cmds":"[15 03 00 10 00 0E C6 DF, 16 03 00 10 00 0E C6 EC, 17 03 00 10 00 0E C7 3D]","time":1692150752400,"client":"ML_L701P","ip":"10.11.21.99","port":10001}
2023-08-16 09:52:32.411 - INFO  [         task-1] c.h.c.m.Mll710pApplication     : {"timestamp":"2023-08-16T01:52:32.407+00:00","status":400,"error":"Bad Request","path":"/tcp/downDataToClient"}
2023-08-16 09:52:42.413 - INFO  [         task-1] c.h.c.m.Mll710pApplication     : 发送查询数据请求!完成
2023-08-16 09:52:42.414 - INFO  [         task-1] c.h.c.m.Mll710pApplication     : 发送查询数据请求!
2023-08-16 09:52:42.429 - INFO  [         task-1] c.h.c.m.Mll710pApplication     : 发送查询请求，url：http://127.0.0.1:8080/tcp/downDataToClient，参数：{"cmds":"[15 03 00 10 00 0E C6 DF, 16 03 00 10 00 0E C6 EC, 17 03 00 10 00 0E C7 3D]","time":1692150762419,"client":"ML_L701P","ip":"10.11.21.99","port":10001}
2023-08-16 09:52:42.430 - INFO  [         task-1] c.h.c.m.Mll710pApplication     : {"timestamp":"2023-08-16T01:52:42.427+00:00","status":400,"error":"Bad Request","path":"/tcp/downDataToClient"}
2023-08-16 09:52:52.431 - INFO  [         task-1] c.h.c.m.Mll710pApplication     : 发送查询数据请求!完成
2023-08-16 09:52:52.432 - INFO  [         task-1] c.h.c.m.Mll710pApplication     : 发送查询数据请求!
2023-08-16 09:52:52.444 - INFO  [         task-1] c.h.c.m.Mll710pApplication     : 发送查询请求，url：http://127.0.0.1:8080/tcp/downDataToClient，参数：{"cmds":"[15 03 00 10 00 0E C6 DF, 16 03 00 10 00 0E C6 EC, 17 03 00 10 00 0E C7 3D]","time":1692150772435,"client":"ML_L701P","ip":"10.11.21.99","port":10001}
2023-08-16 09:52:52.445 - INFO  [         task-1] c.h.c.m.Mll710pApplication     : {"timestamp":"2023-08-16T01:52:52.442+00:00","status":400,"error":"Bad Request","path":"/tcp/downDataToClient"}
2023-08-16 09:53:02.446 - INFO  [         task-1] c.h.c.m.Mll710pApplication     : 发送查询数据请求!完成
2023-08-16 09:53:02.448 - INFO  [         task-1] c.h.c.m.Mll710pApplication     : 发送查询数据请求!
2023-08-16 09:53:02.459 - INFO  [         task-1] c.h.c.m.Mll710pApplication     : 发送查询请求，url：http://127.0.0.1:8080/tcp/downDataToClient，参数：{"cmds":"[15 03 00 10 00 0E C6 DF, 16 03 00 10 00 0E C6 EC, 17 03 00 10 00 0E C7 3D]","time":1692150782450,"client":"ML_L701P","ip":"10.11.21.99","port":10001}
2023-08-16 09:53:02.460 - INFO  [         task-1] c.h.c.m.Mll710pApplication     : {"timestamp":"2023-08-16T01:53:02.457+00:00","status":400,"error":"Bad Request","path":"/tcp/downDataToClient"}
2023-08-16 09:53:12.462 - INFO  [         task-1] c.h.c.m.Mll710pApplication     : 发送查询数据请求!完成
2023-08-16 09:53:12.463 - INFO  [         task-1] c.h.c.m.Mll710pApplication     : 发送查询数据请求!
2023-08-16 09:53:12.480 - INFO  [         task-1] c.h.c.m.Mll710pApplication     : 发送查询请求，url：http://127.0.0.1:8080/tcp/downDataToClient，参数：{"cmds":"[15 03 00 10 00 0E C6 DF, 16 03 00 10 00 0E C6 EC, 17 03 00 10 00 0E C7 3D]","time":1692150792467,"client":"ML_L701P","ip":"10.11.21.99","port":10001}
2023-08-16 09:53:12.482 - INFO  [         task-1] c.h.c.m.Mll710pApplication     : {"timestamp":"2023-08-16T01:53:12.475+00:00","status":400,"error":"Bad Request","path":"/tcp/downDataToClient"}
2023-08-16 09:53:22.484 - INFO  [         task-1] c.h.c.m.Mll710pApplication     : 发送查询数据请求!完成
2023-08-16 09:53:22.485 - INFO  [         task-1] c.h.c.m.Mll710pApplication     : 发送查询数据请求!
2023-08-16 09:53:22.496 - INFO  [         task-1] c.h.c.m.Mll710pApplication     : 发送查询请求，url：http://127.0.0.1:8080/tcp/downDataToClient，参数：{"cmds":"[15 03 00 10 00 0E C6 DF, 16 03 00 10 00 0E C6 EC, 17 03 00 10 00 0E C7 3D]","time":1692150802488,"client":"ML_L701P","ip":"10.11.21.99","port":10001}
2023-08-16 09:53:22.497 - INFO  [         task-1] c.h.c.m.Mll710pApplication     : {"timestamp":"2023-08-16T01:53:22.493+00:00","status":400,"error":"Bad Request","path":"/tcp/downDataToClient"}
2023-08-16 09:53:32.501 - INFO  [         task-1] c.h.c.m.Mll710pApplication     : 发送查询数据请求!完成
2023-08-16 09:53:32.502 - INFO  [         task-1] c.h.c.m.Mll710pApplication     : 发送查询数据请求!
2023-08-16 09:53:32.511 - INFO  [         task-1] c.h.c.m.Mll710pApplication     : 发送查询请求，url：http://127.0.0.1:8080/tcp/downDataToClient，参数：{"cmds":"[15 03 00 10 00 0E C6 DF, 16 03 00 10 00 0E C6 EC, 17 03 00 10 00 0E C7 3D]","time":1692150812504,"client":"ML_L701P","ip":"10.11.21.99","port":10001}
2023-08-16 09:53:32.512 - INFO  [         task-1] c.h.c.m.Mll710pApplication     : {"timestamp":"2023-08-16T01:53:32.510+00:00","status":400,"error":"Bad Request","path":"/tcp/downDataToClient"}
2023-08-16 09:53:42.514 - INFO  [         task-1] c.h.c.m.Mll710pApplication     : 发送查询数据请求!完成
2023-08-16 09:53:42.515 - INFO  [         task-1] c.h.c.m.Mll710pApplication     : 发送查询数据请求!
2023-08-16 09:53:42.527 - INFO  [         task-1] c.h.c.m.Mll710pApplication     : 发送查询请求，url：http://127.0.0.1:8080/tcp/downDataToClient，参数：{"cmds":"[15 03 00 10 00 0E C6 DF, 16 03 00 10 00 0E C6 EC, 17 03 00 10 00 0E C7 3D]","time":1692150822517,"client":"ML_L701P","ip":"10.11.21.99","port":10001}
2023-08-16 09:53:42.528 - INFO  [         task-1] c.h.c.m.Mll710pApplication     : {"timestamp":"2023-08-16T01:53:42.525+00:00","status":400,"error":"Bad Request","path":"/tcp/downDataToClient"}
2023-08-16 09:53:52.529 - INFO  [         task-1] c.h.c.m.Mll710pApplication     : 发送查询数据请求!完成
2023-08-16 09:53:52.531 - INFO  [         task-1] c.h.c.m.Mll710pApplication     : 发送查询数据请求!
2023-08-16 09:53:52.542 - INFO  [         task-1] c.h.c.m.Mll710pApplication     : 发送查询请求，url：http://127.0.0.1:8080/tcp/downDataToClient，参数：{"cmds":"[15 03 00 10 00 0E C6 DF, 16 03 00 10 00 0E C6 EC, 17 03 00 10 00 0E C7 3D]","time":1692150832534,"client":"ML_L701P","ip":"10.11.21.99","port":10001}
2023-08-16 09:53:52.543 - INFO  [         task-1] c.h.c.m.Mll710pApplication     : {"timestamp":"2023-08-16T01:53:52.541+00:00","status":400,"error":"Bad Request","path":"/tcp/downDataToClient"}
2023-08-16 09:54:02.545 - INFO  [         task-1] c.h.c.m.Mll710pApplication     : 发送查询数据请求!完成
2023-08-16 09:54:02.546 - INFO  [         task-1] c.h.c.m.Mll710pApplication     : 发送查询数据请求!
2023-08-16 09:54:02.558 - INFO  [         task-1] c.h.c.m.Mll710pApplication     : 发送查询请求，url：http://127.0.0.1:8080/tcp/downDataToClient，参数：{"cmds":"[15 03 00 10 00 0E C6 DF, 16 03 00 10 00 0E C6 EC, 17 03 00 10 00 0E C7 3D]","time":1692150842549,"client":"ML_L701P","ip":"10.11.21.99","port":10001}
2023-08-16 09:54:02.560 - INFO  [         task-1] c.h.c.m.Mll710pApplication     : {"timestamp":"2023-08-16T01:54:02.556+00:00","status":400,"error":"Bad Request","path":"/tcp/downDataToClient"}
2023-08-16 09:54:12.561 - INFO  [         task-1] c.h.c.m.Mll710pApplication     : 发送查询数据请求!完成
2023-08-16 09:54:12.562 - INFO  [         task-1] c.h.c.m.Mll710pApplication     : 发送查询数据请求!
2023-08-16 09:54:12.574 - INFO  [         task-1] c.h.c.m.Mll710pApplication     : 发送查询请求，url：http://127.0.0.1:8080/tcp/downDataToClient，参数：{"cmds":"[15 03 00 10 00 0E C6 DF, 16 03 00 10 00 0E C6 EC, 17 03 00 10 00 0E C7 3D]","time":1692150852565,"client":"ML_L701P","ip":"10.11.21.99","port":10001}
2023-08-16 09:54:12.575 - INFO  [         task-1] c.h.c.m.Mll710pApplication     : {"timestamp":"2023-08-16T01:54:12.572+00:00","status":400,"error":"Bad Request","path":"/tcp/downDataToClient"}
2023-08-16 09:54:22.579 - INFO  [         task-1] c.h.c.m.Mll710pApplication     : 发送查询数据请求!完成
2023-08-16 09:54:22.580 - INFO  [         task-1] c.h.c.m.Mll710pApplication     : 发送查询数据请求!
2023-08-16 09:54:22.594 - INFO  [         task-1] c.h.c.m.Mll710pApplication     : 发送查询请求，url：http://127.0.0.1:8080/tcp/downDataToClient，参数：{"cmds":"[15 03 00 10 00 0E C6 DF, 16 03 00 10 00 0E C6 EC, 17 03 00 10 00 0E C7 3D]","time":1692150862584,"client":"ML_L701P","ip":"10.11.21.99","port":10001}
2023-08-16 09:54:22.598 - INFO  [         task-1] c.h.c.m.Mll710pApplication     : {"timestamp":"2023-08-16T01:54:22.592+00:00","status":400,"error":"Bad Request","path":"/tcp/downDataToClient"}
2023-08-16 09:54:32.600 - INFO  [         task-1] c.h.c.m.Mll710pApplication     : 发送查询数据请求!完成
2023-08-16 09:54:32.601 - INFO  [         task-1] c.h.c.m.Mll710pApplication     : 发送查询数据请求!
2023-08-16 09:54:32.612 - INFO  [         task-1] c.h.c.m.Mll710pApplication     : 发送查询请求，url：http://127.0.0.1:8080/tcp/downDataToClient，参数：{"cmds":"[15 03 00 10 00 0E C6 DF, 16 03 00 10 00 0E C6 EC, 17 03 00 10 00 0E C7 3D]","time":1692150872604,"client":"ML_L701P","ip":"10.11.21.99","port":10001}
2023-08-16 09:54:32.613 - INFO  [         task-1] c.h.c.m.Mll710pApplication     : {"timestamp":"2023-08-16T01:54:32.611+00:00","status":400,"error":"Bad Request","path":"/tcp/downDataToClient"}
2023-08-16 09:54:42.615 - INFO  [         task-1] c.h.c.m.Mll710pApplication     : 发送查询数据请求!完成
2023-08-16 09:54:42.616 - INFO  [         task-1] c.h.c.m.Mll710pApplication     : 发送查询数据请求!
2023-08-16 09:54:42.629 - INFO  [         task-1] c.h.c.m.Mll710pApplication     : 发送查询请求，url：http://127.0.0.1:8080/tcp/downDataToClient，参数：{"cmds":"[15 03 00 10 00 0E C6 DF, 16 03 00 10 00 0E C6 EC, 17 03 00 10 00 0E C7 3D]","time":1692150882619,"client":"ML_L701P","ip":"10.11.21.99","port":10001}
2023-08-16 09:54:42.634 - INFO  [         task-1] c.h.c.m.Mll710pApplication     : {"timestamp":"2023-08-16T01:54:42.628+00:00","status":400,"error":"Bad Request","path":"/tcp/downDataToClient"}
2023-08-16 09:54:52.637 - INFO  [         task-1] c.h.c.m.Mll710pApplication     : 发送查询数据请求!完成
2023-08-16 09:54:52.638 - INFO  [         task-1] c.h.c.m.Mll710pApplication     : 发送查询数据请求!
2023-08-16 09:54:52.649 - INFO  [         task-1] c.h.c.m.Mll710pApplication     : 发送查询请求，url：http://127.0.0.1:8080/tcp/downDataToClient，参数：{"cmds":"[15 03 00 10 00 0E C6 DF, 16 03 00 10 00 0E C6 EC, 17 03 00 10 00 0E C7 3D]","time":1692150892642,"client":"ML_L701P","ip":"10.11.21.99","port":10001}
2023-08-16 09:54:52.652 - INFO  [         task-1] c.h.c.m.Mll710pApplication     : {"timestamp":"2023-08-16T01:54:52.648+00:00","status":400,"error":"Bad Request","path":"/tcp/downDataToClient"}
2023-08-16 09:55:02.655 - INFO  [         task-1] c.h.c.m.Mll710pApplication     : 发送查询数据请求!完成
2023-08-16 09:55:02.657 - INFO  [         task-1] c.h.c.m.Mll710pApplication     : 发送查询数据请求!
2023-08-16 09:55:02.669 - INFO  [         task-1] c.h.c.m.Mll710pApplication     : 发送查询请求，url：http://127.0.0.1:8080/tcp/downDataToClient，参数：{"cmds":"[15 03 00 10 00 0E C6 DF, 16 03 00 10 00 0E C6 EC, 17 03 00 10 00 0E C7 3D]","time":1692150902660,"client":"ML_L701P","ip":"10.11.21.99","port":10001}
2023-08-16 09:55:02.670 - INFO  [         task-1] c.h.c.m.Mll710pApplication     : {"timestamp":"2023-08-16T01:55:02.667+00:00","status":400,"error":"Bad Request","path":"/tcp/downDataToClient"}
2023-08-16 09:55:12.672 - INFO  [         task-1] c.h.c.m.Mll710pApplication     : 发送查询数据请求!完成
2023-08-16 09:55:12.673 - INFO  [         task-1] c.h.c.m.Mll710pApplication     : 发送查询数据请求!
2023-08-16 09:55:12.687 - INFO  [         task-1] c.h.c.m.Mll710pApplication     : 发送查询请求，url：http://127.0.0.1:8080/tcp/downDataToClient，参数：{"cmds":"[15 03 00 10 00 0E C6 DF, 16 03 00 10 00 0E C6 EC, 17 03 00 10 00 0E C7 3D]","time":1692150912676,"client":"ML_L701P","ip":"10.11.21.99","port":10001}
2023-08-16 09:55:12.688 - INFO  [         task-1] c.h.c.m.Mll710pApplication     : {"timestamp":"2023-08-16T01:55:12.685+00:00","status":400,"error":"Bad Request","path":"/tcp/downDataToClient"}
2023-08-16 09:55:22.693 - INFO  [         task-1] c.h.c.m.Mll710pApplication     : 发送查询数据请求!完成
2023-08-16 09:55:22.694 - INFO  [         task-1] c.h.c.m.Mll710pApplication     : 发送查询数据请求!
2023-08-16 09:55:22.705 - INFO  [         task-1] c.h.c.m.Mll710pApplication     : 发送查询请求，url：http://127.0.0.1:8080/tcp/downDataToClient，参数：{"cmds":"[15 03 00 10 00 0E C6 DF, 16 03 00 10 00 0E C6 EC, 17 03 00 10 00 0E C7 3D]","time":1692150922697,"client":"ML_L701P","ip":"10.11.21.99","port":10001}
2023-08-16 09:55:22.706 - INFO  [         task-1] c.h.c.m.Mll710pApplication     : {"timestamp":"2023-08-16T01:55:22.703+00:00","status":400,"error":"Bad Request","path":"/tcp/downDataToClient"}
2023-08-16 09:55:32.711 - INFO  [         task-1] c.h.c.m.Mll710pApplication     : 发送查询数据请求!完成
2023-08-16 09:55:32.712 - INFO  [         task-1] c.h.c.m.Mll710pApplication     : 发送查询数据请求!
2023-08-16 09:55:32.721 - INFO  [         task-1] c.h.c.m.Mll710pApplication     : 发送查询请求，url：http://127.0.0.1:8080/tcp/downDataToClient，参数：{"cmds":"[15 03 00 10 00 0E C6 DF, 16 03 00 10 00 0E C6 EC, 17 03 00 10 00 0E C7 3D]","time":1692150932714,"client":"ML_L701P","ip":"10.11.21.99","port":10001}
2023-08-16 09:55:32.721 - INFO  [         task-1] c.h.c.m.Mll710pApplication     : {"timestamp":"2023-08-16T01:55:32.719+00:00","status":400,"error":"Bad Request","path":"/tcp/downDataToClient"}
2023-08-16 09:55:42.723 - INFO  [         task-1] c.h.c.m.Mll710pApplication     : 发送查询数据请求!完成
2023-08-16 09:55:42.724 - INFO  [         task-1] c.h.c.m.Mll710pApplication     : 发送查询数据请求!
2023-08-16 09:55:42.732 - INFO  [         task-1] c.h.c.m.Mll710pApplication     : 发送查询请求，url：http://127.0.0.1:8080/tcp/downDataToClient，参数：{"cmds":"[15 03 00 10 00 0E C6 DF, 16 03 00 10 00 0E C6 EC, 17 03 00 10 00 0E C7 3D]","time":1692150942726,"client":"ML_L701P","ip":"10.11.21.99","port":10001}
2023-08-16 09:55:42.734 - INFO  [         task-1] c.h.c.m.Mll710pApplication     : {"timestamp":"2023-08-16T01:55:42.731+00:00","status":400,"error":"Bad Request","path":"/tcp/downDataToClient"}
2023-08-16 09:55:52.735 - INFO  [         task-1] c.h.c.m.Mll710pApplication     : 发送查询数据请求!完成
2023-08-16 09:55:52.736 - INFO  [         task-1] c.h.c.m.Mll710pApplication     : 发送查询数据请求!
2023-08-16 09:55:52.746 - INFO  [         task-1] c.h.c.m.Mll710pApplication     : 发送查询请求，url：http://127.0.0.1:8080/tcp/downDataToClient，参数：{"cmds":"[15 03 00 10 00 0E C6 DF, 16 03 00 10 00 0E C6 EC, 17 03 00 10 00 0E C7 3D]","time":1692150952738,"client":"ML_L701P","ip":"10.11.21.99","port":10001}
2023-08-16 09:55:52.747 - INFO  [         task-1] c.h.c.m.Mll710pApplication     : {"timestamp":"2023-08-16T01:55:52.744+00:00","status":400,"error":"Bad Request","path":"/tcp/downDataToClient"}
2023-08-16 09:56:02.747 - INFO  [         task-1] c.h.c.m.Mll710pApplication     : 发送查询数据请求!完成
2023-08-16 09:56:02.749 - INFO  [         task-1] c.h.c.m.Mll710pApplication     : 发送查询数据请求!
2023-08-16 09:56:02.756 - INFO  [         task-1] c.h.c.m.Mll710pApplication     : 发送查询请求，url：http://127.0.0.1:8080/tcp/downDataToClient，参数：{"cmds":"[15 03 00 10 00 0E C6 DF, 16 03 00 10 00 0E C6 EC, 17 03 00 10 00 0E C7 3D]","time":1692150962750,"client":"ML_L701P","ip":"10.11.21.99","port":10001}
2023-08-16 09:56:02.757 - INFO  [         task-1] c.h.c.m.Mll710pApplication     : {"timestamp":"2023-08-16T01:56:02.755+00:00","status":400,"error":"Bad Request","path":"/tcp/downDataToClient"}
2023-08-16 09:56:12.759 - INFO  [         task-1] c.h.c.m.Mll710pApplication     : 发送查询数据请求!完成
2023-08-16 09:56:12.759 - INFO  [         task-1] c.h.c.m.Mll710pApplication     : 发送查询数据请求!
2023-08-16 09:56:12.768 - INFO  [         task-1] c.h.c.m.Mll710pApplication     : 发送查询请求，url：http://127.0.0.1:8080/tcp/downDataToClient，参数：{"cmds":"[15 03 00 10 00 0E C6 DF, 16 03 00 10 00 0E C6 EC, 17 03 00 10 00 0E C7 3D]","time":1692150972761,"client":"ML_L701P","ip":"10.11.21.99","port":10001}
2023-08-16 09:56:12.770 - INFO  [         task-1] c.h.c.m.Mll710pApplication     : {"timestamp":"2023-08-16T01:56:12.768+00:00","status":400,"error":"Bad Request","path":"/tcp/downDataToClient"}
2023-08-16 09:56:22.772 - INFO  [         task-1] c.h.c.m.Mll710pApplication     : 发送查询数据请求!完成
2023-08-16 09:56:22.773 - INFO  [         task-1] c.h.c.m.Mll710pApplication     : 发送查询数据请求!
2023-08-16 09:56:22.782 - INFO  [         task-1] c.h.c.m.Mll710pApplication     : 发送查询请求，url：http://127.0.0.1:8080/tcp/downDataToClient，参数：{"cmds":"[15 03 00 10 00 0E C6 DF, 16 03 00 10 00 0E C6 EC, 17 03 00 10 00 0E C7 3D]","time":1692150982774,"client":"ML_L701P","ip":"10.11.21.99","port":10001}
2023-08-16 09:56:22.783 - INFO  [         task-1] c.h.c.m.Mll710pApplication     : {"timestamp":"2023-08-16T01:56:22.781+00:00","status":400,"error":"Bad Request","path":"/tcp/downDataToClient"}
2023-08-16 09:56:32.784 - INFO  [         task-1] c.h.c.m.Mll710pApplication     : 发送查询数据请求!完成
2023-08-16 09:56:32.785 - INFO  [         task-1] c.h.c.m.Mll710pApplication     : 发送查询数据请求!
2023-08-16 09:56:32.794 - INFO  [         task-1] c.h.c.m.Mll710pApplication     : 发送查询请求，url：http://127.0.0.1:8080/tcp/downDataToClient，参数：{"cmds":"[15 03 00 10 00 0E C6 DF, 16 03 00 10 00 0E C6 EC, 17 03 00 10 00 0E C7 3D]","time":1692150992787,"client":"ML_L701P","ip":"10.11.21.99","port":10001}
2023-08-16 09:56:32.795 - INFO  [         task-1] c.h.c.m.Mll710pApplication     : {"timestamp":"2023-08-16T01:56:32.793+00:00","status":400,"error":"Bad Request","path":"/tcp/downDataToClient"}
2023-08-16 09:56:42.797 - INFO  [         task-1] c.h.c.m.Mll710pApplication     : 发送查询数据请求!完成
2023-08-16 09:56:42.798 - INFO  [         task-1] c.h.c.m.Mll710pApplication     : 发送查询数据请求!
2023-08-16 09:56:42.809 - INFO  [         task-1] c.h.c.m.Mll710pApplication     : 发送查询请求，url：http://127.0.0.1:8080/tcp/downDataToClient，参数：{"cmds":"[15 03 00 10 00 0E C6 DF, 16 03 00 10 00 0E C6 EC, 17 03 00 10 00 0E C7 3D]","time":1692151002800,"client":"ML_L701P","ip":"10.11.21.99","port":10001}
2023-08-16 09:56:42.810 - INFO  [         task-1] c.h.c.m.Mll710pApplication     : {"timestamp":"2023-08-16T01:56:42.807+00:00","status":400,"error":"Bad Request","path":"/tcp/downDataToClient"}
2023-08-16 09:56:52.812 - INFO  [         task-1] c.h.c.m.Mll710pApplication     : 发送查询数据请求!完成
2023-08-16 09:56:52.813 - INFO  [         task-1] c.h.c.m.Mll710pApplication     : 发送查询数据请求!
2023-08-16 09:56:52.825 - INFO  [         task-1] c.h.c.m.Mll710pApplication     : 发送查询请求，url：http://127.0.0.1:8080/tcp/downDataToClient，参数：{"cmds":"[15 03 00 10 00 0E C6 DF, 16 03 00 10 00 0E C6 EC, 17 03 00 10 00 0E C7 3D]","time":1692151012816,"client":"ML_L701P","ip":"10.11.21.99","port":10001}
2023-08-16 09:56:52.825 - INFO  [         task-1] c.h.c.m.Mll710pApplication     : {"timestamp":"2023-08-16T01:56:52.823+00:00","status":400,"error":"Bad Request","path":"/tcp/downDataToClient"}
2023-08-16 09:57:02.827 - INFO  [         task-1] c.h.c.m.Mll710pApplication     : 发送查询数据请求!完成
2023-08-16 09:57:02.828 - INFO  [         task-1] c.h.c.m.Mll710pApplication     : 发送查询数据请求!
2023-08-16 09:57:02.838 - INFO  [         task-1] c.h.c.m.Mll710pApplication     : 发送查询请求，url：http://127.0.0.1:8080/tcp/downDataToClient，参数：{"cmds":"[15 03 00 10 00 0E C6 DF, 16 03 00 10 00 0E C6 EC, 17 03 00 10 00 0E C7 3D]","time":1692151022831,"client":"ML_L701P","ip":"10.11.21.99","port":10001}
2023-08-16 09:57:02.841 - INFO  [         task-1] c.h.c.m.Mll710pApplication     : {"timestamp":"2023-08-16T01:57:02.837+00:00","status":400,"error":"Bad Request","path":"/tcp/downDataToClient"}
2023-08-16 09:57:12.841 - INFO  [         task-1] c.h.c.m.Mll710pApplication     : 发送查询数据请求!完成
2023-08-16 09:57:12.842 - INFO  [         task-1] c.h.c.m.Mll710pApplication     : 发送查询数据请求!
2023-08-16 09:57:12.853 - INFO  [         task-1] c.h.c.m.Mll710pApplication     : 发送查询请求，url：http://127.0.0.1:8080/tcp/downDataToClient，参数：{"cmds":"[15 03 00 10 00 0E C6 DF, 16 03 00 10 00 0E C6 EC, 17 03 00 10 00 0E C7 3D]","time":1692151032845,"client":"ML_L701P","ip":"10.11.21.99","port":10001}
2023-08-16 09:57:12.855 - INFO  [         task-1] c.h.c.m.Mll710pApplication     : {"timestamp":"2023-08-16T01:57:12.852+00:00","status":400,"error":"Bad Request","path":"/tcp/downDataToClient"}
2023-08-16 09:57:22.857 - INFO  [         task-1] c.h.c.m.Mll710pApplication     : 发送查询数据请求!完成
2023-08-16 09:57:22.858 - INFO  [         task-1] c.h.c.m.Mll710pApplication     : 发送查询数据请求!
2023-08-16 09:57:22.868 - INFO  [         task-1] c.h.c.m.Mll710pApplication     : 发送查询请求，url：http://127.0.0.1:8080/tcp/downDataToClient，参数：{"cmds":"[15 03 00 10 00 0E C6 DF, 16 03 00 10 00 0E C6 EC, 17 03 00 10 00 0E C7 3D]","time":1692151042860,"client":"ML_L701P","ip":"10.11.21.99","port":10001}
2023-08-16 09:57:22.870 - INFO  [         task-1] c.h.c.m.Mll710pApplication     : {"timestamp":"2023-08-16T01:57:22.867+00:00","status":400,"error":"Bad Request","path":"/tcp/downDataToClient"}
2023-08-16 09:57:32.870 - INFO  [         task-1] c.h.c.m.Mll710pApplication     : 发送查询数据请求!完成
2023-08-16 09:57:32.871 - INFO  [         task-1] c.h.c.m.Mll710pApplication     : 发送查询数据请求!
2023-08-16 09:57:32.882 - INFO  [         task-1] c.h.c.m.Mll710pApplication     : 发送查询请求，url：http://127.0.0.1:8080/tcp/downDataToClient，参数：{"cmds":"[15 03 00 10 00 0E C6 DF, 16 03 00 10 00 0E C6 EC, 17 03 00 10 00 0E C7 3D]","time":1692151052874,"client":"ML_L701P","ip":"10.11.21.99","port":10001}
2023-08-16 09:57:32.884 - INFO  [         task-1] c.h.c.m.Mll710pApplication     : {"timestamp":"2023-08-16T01:57:32.880+00:00","status":400,"error":"Bad Request","path":"/tcp/downDataToClient"}
2023-08-16 09:57:42.885 - INFO  [         task-1] c.h.c.m.Mll710pApplication     : 发送查询数据请求!完成
2023-08-16 09:57:42.886 - INFO  [         task-1] c.h.c.m.Mll710pApplication     : 发送查询数据请求!
2023-08-16 09:57:42.894 - INFO  [         task-1] c.h.c.m.Mll710pApplication     : 发送查询请求，url：http://127.0.0.1:8080/tcp/downDataToClient，参数：{"cmds":"[15 03 00 10 00 0E C6 DF, 16 03 00 10 00 0E C6 EC, 17 03 00 10 00 0E C7 3D]","time":1692151062888,"client":"ML_L701P","ip":"10.11.21.99","port":10001}
2023-08-16 09:57:42.895 - INFO  [         task-1] c.h.c.m.Mll710pApplication     : {"timestamp":"2023-08-16T01:57:42.893+00:00","status":400,"error":"Bad Request","path":"/tcp/downDataToClient"}
2023-08-16 09:57:52.897 - INFO  [         task-1] c.h.c.m.Mll710pApplication     : 发送查询数据请求!完成
2023-08-16 09:57:52.897 - INFO  [         task-1] c.h.c.m.Mll710pApplication     : 发送查询数据请求!
2023-08-16 09:57:52.907 - INFO  [         task-1] c.h.c.m.Mll710pApplication     : 发送查询请求，url：http://127.0.0.1:8080/tcp/downDataToClient，参数：{"cmds":"[15 03 00 10 00 0E C6 DF, 16 03 00 10 00 0E C6 EC, 17 03 00 10 00 0E C7 3D]","time":1692151072900,"client":"ML_L701P","ip":"10.11.21.99","port":10001}
2023-08-16 09:57:52.908 - INFO  [         task-1] c.h.c.m.Mll710pApplication     : {"timestamp":"2023-08-16T01:57:52.905+00:00","status":400,"error":"Bad Request","path":"/tcp/downDataToClient"}
2023-08-16 09:58:02.908 - INFO  [         task-1] c.h.c.m.Mll710pApplication     : 发送查询数据请求!完成
2023-08-16 09:58:02.909 - INFO  [         task-1] c.h.c.m.Mll710pApplication     : 发送查询数据请求!
2023-08-16 09:58:02.918 - INFO  [         task-1] c.h.c.m.Mll710pApplication     : 发送查询请求，url：http://127.0.0.1:8080/tcp/downDataToClient，参数：{"cmds":"[15 03 00 10 00 0E C6 DF, 16 03 00 10 00 0E C6 EC, 17 03 00 10 00 0E C7 3D]","time":1692151082911,"client":"ML_L701P","ip":"10.11.21.99","port":10001}
2023-08-16 09:58:02.919 - INFO  [         task-1] c.h.c.m.Mll710pApplication     : {"timestamp":"2023-08-16T01:58:02.917+00:00","status":400,"error":"Bad Request","path":"/tcp/downDataToClient"}
2023-08-16 09:58:12.920 - INFO  [         task-1] c.h.c.m.Mll710pApplication     : 发送查询数据请求!完成
2023-08-16 09:58:12.921 - INFO  [         task-1] c.h.c.m.Mll710pApplication     : 发送查询数据请求!
2023-08-16 09:58:12.934 - INFO  [         task-1] c.h.c.m.Mll710pApplication     : 发送查询请求，url：http://127.0.0.1:8080/tcp/downDataToClient，参数：{"cmds":"[15 03 00 10 00 0E C6 DF, 16 03 00 10 00 0E C6 EC, 17 03 00 10 00 0E C7 3D]","time":1692151092924,"client":"ML_L701P","ip":"10.11.21.99","port":10001}
2023-08-16 09:58:12.935 - INFO  [         task-1] c.h.c.m.Mll710pApplication     : {"timestamp":"2023-08-16T01:58:12.932+00:00","status":400,"error":"Bad Request","path":"/tcp/downDataToClient"}
2023-08-16 09:58:22.937 - INFO  [         task-1] c.h.c.m.Mll710pApplication     : 发送查询数据请求!完成
2023-08-16 09:58:22.938 - INFO  [         task-1] c.h.c.m.Mll710pApplication     : 发送查询数据请求!
2023-08-16 09:58:22.946 - INFO  [         task-1] c.h.c.m.Mll710pApplication     : 发送查询请求，url：http://127.0.0.1:8080/tcp/downDataToClient，参数：{"cmds":"[15 03 00 10 00 0E C6 DF, 16 03 00 10 00 0E C6 EC, 17 03 00 10 00 0E C7 3D]","time":1692151102940,"client":"ML_L701P","ip":"10.11.21.99","port":10001}
2023-08-16 09:58:22.947 - INFO  [         task-1] c.h.c.m.Mll710pApplication     : {"timestamp":"2023-08-16T01:58:22.945+00:00","status":400,"error":"Bad Request","path":"/tcp/downDataToClient"}
2023-08-16 09:58:32.949 - INFO  [         task-1] c.h.c.m.Mll710pApplication     : 发送查询数据请求!完成
2023-08-16 09:58:32.950 - INFO  [         task-1] c.h.c.m.Mll710pApplication     : 发送查询数据请求!
2023-08-16 09:58:32.958 - INFO  [         task-1] c.h.c.m.Mll710pApplication     : 发送查询请求，url：http://127.0.0.1:8080/tcp/downDataToClient，参数：{"cmds":"[15 03 00 10 00 0E C6 DF, 16 03 00 10 00 0E C6 EC, 17 03 00 10 00 0E C7 3D]","time":1692151112952,"client":"ML_L701P","ip":"10.11.21.99","port":10001}
2023-08-16 09:58:32.959 - INFO  [         task-1] c.h.c.m.Mll710pApplication     : {"timestamp":"2023-08-16T01:58:32.957+00:00","status":400,"error":"Bad Request","path":"/tcp/downDataToClient"}
2023-08-16 09:58:42.961 - INFO  [         task-1] c.h.c.m.Mll710pApplication     : 发送查询数据请求!完成
2023-08-16 09:58:42.962 - INFO  [         task-1] c.h.c.m.Mll710pApplication     : 发送查询数据请求!
2023-08-16 09:58:42.971 - INFO  [         task-1] c.h.c.m.Mll710pApplication     : 发送查询请求，url：http://127.0.0.1:8080/tcp/downDataToClient，参数：{"cmds":"[15 03 00 10 00 0E C6 DF, 16 03 00 10 00 0E C6 EC, 17 03 00 10 00 0E C7 3D]","time":1692151122964,"client":"ML_L701P","ip":"10.11.21.99","port":10001}
2023-08-16 09:58:42.973 - INFO  [         task-1] c.h.c.m.Mll710pApplication     : {"timestamp":"2023-08-16T01:58:42.969+00:00","status":400,"error":"Bad Request","path":"/tcp/downDataToClient"}
2023-08-16 09:58:52.974 - INFO  [         task-1] c.h.c.m.Mll710pApplication     : 发送查询数据请求!完成
2023-08-16 09:58:52.975 - INFO  [         task-1] c.h.c.m.Mll710pApplication     : 发送查询数据请求!
2023-08-16 09:58:52.983 - INFO  [         task-1] c.h.c.m.Mll710pApplication     : 发送查询请求，url：http://127.0.0.1:8080/tcp/downDataToClient，参数：{"cmds":"[15 03 00 10 00 0E C6 DF, 16 03 00 10 00 0E C6 EC, 17 03 00 10 00 0E C7 3D]","time":1692151132977,"client":"ML_L701P","ip":"10.11.21.99","port":10001}
2023-08-16 09:58:52.984 - INFO  [         task-1] c.h.c.m.Mll710pApplication     : {"timestamp":"2023-08-16T01:58:52.982+00:00","status":400,"error":"Bad Request","path":"/tcp/downDataToClient"}
2023-08-16 09:59:02.986 - INFO  [         task-1] c.h.c.m.Mll710pApplication     : 发送查询数据请求!完成
2023-08-16 09:59:02.987 - INFO  [         task-1] c.h.c.m.Mll710pApplication     : 发送查询数据请求!
2023-08-16 09:59:02.996 - INFO  [         task-1] c.h.c.m.Mll710pApplication     : 发送查询请求，url：http://127.0.0.1:8080/tcp/downDataToClient，参数：{"cmds":"[15 03 00 10 00 0E C6 DF, 16 03 00 10 00 0E C6 EC, 17 03 00 10 00 0E C7 3D]","time":1692151142989,"client":"ML_L701P","ip":"10.11.21.99","port":10001}
2023-08-16 09:59:02.997 - INFO  [         task-1] c.h.c.m.Mll710pApplication     : {"timestamp":"2023-08-16T01:59:02.995+00:00","status":400,"error":"Bad Request","path":"/tcp/downDataToClient"}
2023-08-16 09:59:12.999 - INFO  [         task-1] c.h.c.m.Mll710pApplication     : 发送查询数据请求!完成
2023-08-16 09:59:13.000 - INFO  [         task-1] c.h.c.m.Mll710pApplication     : 发送查询数据请求!
2023-08-16 09:59:13.021 - INFO  [         task-1] c.h.c.m.Mll710pApplication     : 发送查询请求，url：http://127.0.0.1:8080/tcp/downDataToClient，参数：{"cmds":"[15 03 00 10 00 0E C6 DF, 16 03 00 10 00 0E C6 EC, 17 03 00 10 00 0E C7 3D]","time":1692151153006,"client":"ML_L701P","ip":"10.11.21.99","port":10001}
2023-08-16 09:59:13.023 - INFO  [         task-1] c.h.c.m.Mll710pApplication     : {"timestamp":"2023-08-16T01:59:13.019+00:00","status":400,"error":"Bad Request","path":"/tcp/downDataToClient"}
2023-08-16 09:59:23.024 - INFO  [         task-1] c.h.c.m.Mll710pApplication     : 发送查询数据请求!完成
2023-08-16 09:59:23.025 - INFO  [         task-1] c.h.c.m.Mll710pApplication     : 发送查询数据请求!
2023-08-16 09:59:23.035 - INFO  [         task-1] c.h.c.m.Mll710pApplication     : 发送查询请求，url：http://127.0.0.1:8080/tcp/downDataToClient，参数：{"cmds":"[15 03 00 10 00 0E C6 DF, 16 03 00 10 00 0E C6 EC, 17 03 00 10 00 0E C7 3D]","time":1692151163027,"client":"ML_L701P","ip":"10.11.21.99","port":10001}
2023-08-16 09:59:23.036 - INFO  [         task-1] c.h.c.m.Mll710pApplication     : {"timestamp":"2023-08-16T01:59:23.033+00:00","status":400,"error":"Bad Request","path":"/tcp/downDataToClient"}
2023-08-16 09:59:33.037 - INFO  [         task-1] c.h.c.m.Mll710pApplication     : 发送查询数据请求!完成
2023-08-16 09:59:33.038 - INFO  [         task-1] c.h.c.m.Mll710pApplication     : 发送查询数据请求!
2023-08-16 09:59:33.059 - INFO  [         task-1] c.h.c.m.Mll710pApplication     : 发送查询请求，url：http://127.0.0.1:8080/tcp/downDataToClient，参数：{"cmds":"[15 03 00 10 00 0E C6 DF, 16 03 00 10 00 0E C6 EC, 17 03 00 10 00 0E C7 3D]","time":1692151173049,"client":"ML_L701P","ip":"10.11.21.99","port":10001}
2023-08-16 09:59:33.062 - INFO  [         task-1] c.h.c.m.Mll710pApplication     : {"timestamp":"2023-08-16T01:59:33.057+00:00","status":400,"error":"Bad Request","path":"/tcp/downDataToClient"}
2023-08-16 09:59:43.064 - INFO  [         task-1] c.h.c.m.Mll710pApplication     : 发送查询数据请求!完成
2023-08-16 09:59:43.065 - INFO  [         task-1] c.h.c.m.Mll710pApplication     : 发送查询数据请求!
2023-08-16 09:59:43.075 - INFO  [         task-1] c.h.c.m.Mll710pApplication     : 发送查询请求，url：http://127.0.0.1:8080/tcp/downDataToClient，参数：{"cmds":"[15 03 00 10 00 0E C6 DF, 16 03 00 10 00 0E C6 EC, 17 03 00 10 00 0E C7 3D]","time":1692151183068,"client":"ML_L701P","ip":"10.11.21.99","port":10001}
2023-08-16 09:59:43.076 - INFO  [         task-1] c.h.c.m.Mll710pApplication     : {"timestamp":"2023-08-16T01:59:43.074+00:00","status":400,"error":"Bad Request","path":"/tcp/downDataToClient"}
2023-08-16 09:59:53.078 - INFO  [         task-1] c.h.c.m.Mll710pApplication     : 发送查询数据请求!完成
2023-08-16 09:59:53.079 - INFO  [         task-1] c.h.c.m.Mll710pApplication     : 发送查询数据请求!
2023-08-16 09:59:53.090 - INFO  [         task-1] c.h.c.m.Mll710pApplication     : 发送查询请求，url：http://127.0.0.1:8080/tcp/downDataToClient，参数：{"cmds":"[15 03 00 10 00 0E C6 DF, 16 03 00 10 00 0E C6 EC, 17 03 00 10 00 0E C7 3D]","time":1692151193082,"client":"ML_L701P","ip":"10.11.21.99","port":10001}
2023-08-16 09:59:53.091 - INFO  [         task-1] c.h.c.m.Mll710pApplication     : {"timestamp":"2023-08-16T01:59:53.088+00:00","status":400,"error":"Bad Request","path":"/tcp/downDataToClient"}
2023-08-16 10:00:03.092 - INFO  [         task-1] c.h.c.m.Mll710pApplication     : 发送查询数据请求!完成
2023-08-16 10:00:03.093 - INFO  [         task-1] c.h.c.m.Mll710pApplication     : 发送查询数据请求!
2023-08-16 10:00:03.104 - INFO  [         task-1] c.h.c.m.Mll710pApplication     : 发送查询请求，url：http://127.0.0.1:8080/tcp/downDataToClient，参数：{"cmds":"[15 03 00 10 00 0E C6 DF, 16 03 00 10 00 0E C6 EC, 17 03 00 10 00 0E C7 3D]","time":1692151203096,"client":"ML_L701P","ip":"10.11.21.99","port":10001}
2023-08-16 10:00:03.105 - INFO  [         task-1] c.h.c.m.Mll710pApplication     : {"timestamp":"2023-08-16T02:00:03.103+00:00","status":400,"error":"Bad Request","path":"/tcp/downDataToClient"}
2023-08-16 10:00:13.106 - INFO  [         task-1] c.h.c.m.Mll710pApplication     : 发送查询数据请求!完成
2023-08-16 10:00:13.107 - INFO  [         task-1] c.h.c.m.Mll710pApplication     : 发送查询数据请求!
2023-08-16 10:00:13.119 - INFO  [         task-1] c.h.c.m.Mll710pApplication     : 发送查询请求，url：http://127.0.0.1:8080/tcp/downDataToClient，参数：{"cmds":"[15 03 00 10 00 0E C6 DF, 16 03 00 10 00 0E C6 EC, 17 03 00 10 00 0E C7 3D]","time":1692151213109,"client":"ML_L701P","ip":"10.11.21.99","port":10001}
2023-08-16 10:00:13.120 - INFO  [         task-1] c.h.c.m.Mll710pApplication     : {"timestamp":"2023-08-16T02:00:13.117+00:00","status":400,"error":"Bad Request","path":"/tcp/downDataToClient"}
2023-08-16 10:00:23.122 - INFO  [         task-1] c.h.c.m.Mll710pApplication     : 发送查询数据请求!完成
2023-08-16 10:00:23.123 - INFO  [         task-1] c.h.c.m.Mll710pApplication     : 发送查询数据请求!
2023-08-16 10:00:23.131 - INFO  [         task-1] c.h.c.m.Mll710pApplication     : 发送查询请求，url：http://127.0.0.1:8080/tcp/downDataToClient，参数：{"cmds":"[15 03 00 10 00 0E C6 DF, 16 03 00 10 00 0E C6 EC, 17 03 00 10 00 0E C7 3D]","time":1692151223125,"client":"ML_L701P","ip":"10.11.21.99","port":10001}
2023-08-16 10:00:23.131 - INFO  [         task-1] c.h.c.m.Mll710pApplication     : {"timestamp":"2023-08-16T02:00:23.130+00:00","status":400,"error":"Bad Request","path":"/tcp/downDataToClient"}
2023-08-16 10:00:33.133 - INFO  [         task-1] c.h.c.m.Mll710pApplication     : 发送查询数据请求!完成
2023-08-16 10:00:33.134 - INFO  [         task-1] c.h.c.m.Mll710pApplication     : 发送查询数据请求!
2023-08-16 10:00:33.147 - INFO  [         task-1] c.h.c.m.Mll710pApplication     : 发送查询请求，url：http://127.0.0.1:8080/tcp/downDataToClient，参数：{"cmds":"[15 03 00 10 00 0E C6 DF, 16 03 00 10 00 0E C6 EC, 17 03 00 10 00 0E C7 3D]","time":1692151233138,"client":"ML_L701P","ip":"10.11.21.99","port":10001}
2023-08-16 10:00:33.151 - INFO  [         task-1] c.h.c.m.Mll710pApplication     : {"timestamp":"2023-08-16T02:00:33.146+00:00","status":400,"error":"Bad Request","path":"/tcp/downDataToClient"}
2023-08-16 10:00:43.153 - INFO  [         task-1] c.h.c.m.Mll710pApplication     : 发送查询数据请求!完成
2023-08-16 10:00:43.154 - INFO  [         task-1] c.h.c.m.Mll710pApplication     : 发送查询数据请求!
2023-08-16 10:00:43.164 - INFO  [         task-1] c.h.c.m.Mll710pApplication     : 发送查询请求，url：http://127.0.0.1:8080/tcp/downDataToClient，参数：{"cmds":"[15 03 00 10 00 0E C6 DF, 16 03 00 10 00 0E C6 EC, 17 03 00 10 00 0E C7 3D]","time":1692151243156,"client":"ML_L701P","ip":"10.11.21.99","port":10001}
2023-08-16 10:00:43.165 - INFO  [         task-1] c.h.c.m.Mll710pApplication     : {"timestamp":"2023-08-16T02:00:43.162+00:00","status":400,"error":"Bad Request","path":"/tcp/downDataToClient"}
2023-08-16 10:00:53.166 - INFO  [         task-1] c.h.c.m.Mll710pApplication     : 发送查询数据请求!完成
2023-08-16 10:00:53.168 - INFO  [         task-1] c.h.c.m.Mll710pApplication     : 发送查询数据请求!
2023-08-16 10:00:53.176 - INFO  [         task-1] c.h.c.m.Mll710pApplication     : 发送查询请求，url：http://127.0.0.1:8080/tcp/downDataToClient，参数：{"cmds":"[15 03 00 10 00 0E C6 DF, 16 03 00 10 00 0E C6 EC, 17 03 00 10 00 0E C7 3D]","time":1692151253169,"client":"ML_L701P","ip":"10.11.21.99","port":10001}
2023-08-16 10:00:53.177 - INFO  [         task-1] c.h.c.m.Mll710pApplication     : {"timestamp":"2023-08-16T02:00:53.175+00:00","status":400,"error":"Bad Request","path":"/tcp/downDataToClient"}
2023-08-16 10:01:03.179 - INFO  [         task-1] c.h.c.m.Mll710pApplication     : 发送查询数据请求!完成
2023-08-16 10:01:03.180 - INFO  [         task-1] c.h.c.m.Mll710pApplication     : 发送查询数据请求!
2023-08-16 10:01:03.191 - INFO  [         task-1] c.h.c.m.Mll710pApplication     : 发送查询请求，url：http://127.0.0.1:8080/tcp/downDataToClient，参数：{"cmds":"[15 03 00 10 00 0E C6 DF, 16 03 00 10 00 0E C6 EC, 17 03 00 10 00 0E C7 3D]","time":1692151263182,"client":"ML_L701P","ip":"10.11.21.99","port":10001}
2023-08-16 10:01:03.192 - INFO  [         task-1] c.h.c.m.Mll710pApplication     : {"timestamp":"2023-08-16T02:01:03.190+00:00","status":400,"error":"Bad Request","path":"/tcp/downDataToClient"}
2023-08-16 10:01:13.194 - INFO  [         task-1] c.h.c.m.Mll710pApplication     : 发送查询数据请求!完成
2023-08-16 10:01:13.195 - INFO  [         task-1] c.h.c.m.Mll710pApplication     : 发送查询数据请求!
2023-08-16 10:01:13.205 - INFO  [         task-1] c.h.c.m.Mll710pApplication     : 发送查询请求，url：http://127.0.0.1:8080/tcp/downDataToClient，参数：{"cmds":"[15 03 00 10 00 0E C6 DF, 16 03 00 10 00 0E C6 EC, 17 03 00 10 00 0E C7 3D]","time":1692151273197,"client":"ML_L701P","ip":"10.11.21.99","port":10001}
2023-08-16 10:01:13.206 - INFO  [         task-1] c.h.c.m.Mll710pApplication     : {"timestamp":"2023-08-16T02:01:13.203+00:00","status":400,"error":"Bad Request","path":"/tcp/downDataToClient"}
2023-08-16 10:01:23.208 - INFO  [         task-1] c.h.c.m.Mll710pApplication     : 发送查询数据请求!完成
2023-08-16 10:01:23.209 - INFO  [         task-1] c.h.c.m.Mll710pApplication     : 发送查询数据请求!
2023-08-16 10:01:23.217 - INFO  [         task-1] c.h.c.m.Mll710pApplication     : 发送查询请求，url：http://127.0.0.1:8080/tcp/downDataToClient，参数：{"cmds":"[15 03 00 10 00 0E C6 DF, 16 03 00 10 00 0E C6 EC, 17 03 00 10 00 0E C7 3D]","time":1692151283210,"client":"ML_L701P","ip":"10.11.21.99","port":10001}
2023-08-16 10:01:23.218 - INFO  [         task-1] c.h.c.m.Mll710pApplication     : {"timestamp":"2023-08-16T02:01:23.215+00:00","status":400,"error":"Bad Request","path":"/tcp/downDataToClient"}
2023-08-16 10:01:33.219 - INFO  [         task-1] c.h.c.m.Mll710pApplication     : 发送查询数据请求!完成
2023-08-16 10:01:33.220 - INFO  [         task-1] c.h.c.m.Mll710pApplication     : 发送查询数据请求!
2023-08-16 10:01:33.232 - INFO  [         task-1] c.h.c.m.Mll710pApplication     : 发送查询请求，url：http://127.0.0.1:8080/tcp/downDataToClient，参数：{"cmds":"[15 03 00 10 00 0E C6 DF, 16 03 00 10 00 0E C6 EC, 17 03 00 10 00 0E C7 3D]","time":1692151293222,"client":"ML_L701P","ip":"10.11.21.99","port":10001}
2023-08-16 10:01:33.233 - INFO  [         task-1] c.h.c.m.Mll710pApplication     : {"timestamp":"2023-08-16T02:01:33.229+00:00","status":400,"error":"Bad Request","path":"/tcp/downDataToClient"}
2023-08-16 10:01:43.234 - INFO  [         task-1] c.h.c.m.Mll710pApplication     : 发送查询数据请求!完成
2023-08-16 10:01:43.235 - INFO  [         task-1] c.h.c.m.Mll710pApplication     : 发送查询数据请求!
2023-08-16 10:01:43.247 - INFO  [         task-1] c.h.c.m.Mll710pApplication     : 发送查询请求，url：http://127.0.0.1:8080/tcp/downDataToClient，参数：{"cmds":"[15 03 00 10 00 0E C6 DF, 16 03 00 10 00 0E C6 EC, 17 03 00 10 00 0E C7 3D]","time":1692151303238,"client":"ML_L701P","ip":"10.11.21.99","port":10001}
2023-08-16 10:01:43.248 - INFO  [         task-1] c.h.c.m.Mll710pApplication     : {"timestamp":"2023-08-16T02:01:43.245+00:00","status":400,"error":"Bad Request","path":"/tcp/downDataToClient"}
2023-08-16 10:01:53.249 - INFO  [         task-1] c.h.c.m.Mll710pApplication     : 发送查询数据请求!完成
2023-08-16 10:01:53.249 - INFO  [         task-1] c.h.c.m.Mll710pApplication     : 发送查询数据请求!
2023-08-16 10:01:53.262 - INFO  [         task-1] c.h.c.m.Mll710pApplication     : 发送查询请求，url：http://127.0.0.1:8080/tcp/downDataToClient，参数：{"cmds":"[15 03 00 10 00 0E C6 DF, 16 03 00 10 00 0E C6 EC, 17 03 00 10 00 0E C7 3D]","time":1692151313253,"client":"ML_L701P","ip":"10.11.21.99","port":10001}
2023-08-16 10:01:53.264 - INFO  [         task-1] c.h.c.m.Mll710pApplication     : {"timestamp":"2023-08-16T02:01:53.259+00:00","status":400,"error":"Bad Request","path":"/tcp/downDataToClient"}
2023-08-16 10:02:03.265 - INFO  [         task-1] c.h.c.m.Mll710pApplication     : 发送查询数据请求!完成
2023-08-16 10:02:03.266 - INFO  [         task-1] c.h.c.m.Mll710pApplication     : 发送查询数据请求!
2023-08-16 10:02:03.277 - INFO  [         task-1] c.h.c.m.Mll710pApplication     : 发送查询请求，url：http://127.0.0.1:8080/tcp/downDataToClient，参数：{"cmds":"[15 03 00 10 00 0E C6 DF, 16 03 00 10 00 0E C6 EC, 17 03 00 10 00 0E C7 3D]","time":1692151323269,"client":"ML_L701P","ip":"10.11.21.99","port":10001}
2023-08-16 10:02:03.279 - INFO  [         task-1] c.h.c.m.Mll710pApplication     : {"timestamp":"2023-08-16T02:02:03.275+00:00","status":400,"error":"Bad Request","path":"/tcp/downDataToClient"}
2023-08-16 10:02:13.280 - INFO  [         task-1] c.h.c.m.Mll710pApplication     : 发送查询数据请求!完成
2023-08-16 10:02:13.281 - INFO  [         task-1] c.h.c.m.Mll710pApplication     : 发送查询数据请求!
2023-08-16 10:02:13.294 - INFO  [         task-1] c.h.c.m.Mll710pApplication     : 发送查询请求，url：http://127.0.0.1:8080/tcp/downDataToClient，参数：{"cmds":"[15 03 00 10 00 0E C6 DF, 16 03 00 10 00 0E C6 EC, 17 03 00 10 00 0E C7 3D]","time":1692151333283,"client":"ML_L701P","ip":"10.11.21.99","port":10001}
2023-08-16 10:02:13.298 - INFO  [         task-1] c.h.c.m.Mll710pApplication     : {"timestamp":"2023-08-16T02:02:13.292+00:00","status":400,"error":"Bad Request","path":"/tcp/downDataToClient"}
2023-08-16 10:02:23.299 - INFO  [         task-1] c.h.c.m.Mll710pApplication     : 发送查询数据请求!完成
2023-08-16 10:02:23.300 - INFO  [         task-1] c.h.c.m.Mll710pApplication     : 发送查询数据请求!
2023-08-16 10:02:23.309 - INFO  [         task-1] c.h.c.m.Mll710pApplication     : 发送查询请求，url：http://127.0.0.1:8080/tcp/downDataToClient，参数：{"cmds":"[15 03 00 10 00 0E C6 DF, 16 03 00 10 00 0E C6 EC, 17 03 00 10 00 0E C7 3D]","time":1692151343302,"client":"ML_L701P","ip":"10.11.21.99","port":10001}
2023-08-16 10:02:23.310 - INFO  [         task-1] c.h.c.m.Mll710pApplication     : {"timestamp":"2023-08-16T02:02:23.308+00:00","status":400,"error":"Bad Request","path":"/tcp/downDataToClient"}
2023-08-16 10:02:33.312 - INFO  [         task-1] c.h.c.m.Mll710pApplication     : 发送查询数据请求!完成
2023-08-16 10:02:33.313 - INFO  [         task-1] c.h.c.m.Mll710pApplication     : 发送查询数据请求!
2023-08-16 10:02:33.320 - INFO  [         task-1] c.h.c.m.Mll710pApplication     : 发送查询请求，url：http://127.0.0.1:8080/tcp/downDataToClient，参数：{"cmds":"[15 03 00 10 00 0E C6 DF, 16 03 00 10 00 0E C6 EC, 17 03 00 10 00 0E C7 3D]","time":1692151353315,"client":"ML_L701P","ip":"10.11.21.99","port":10001}
2023-08-16 10:02:33.323 - INFO  [         task-1] c.h.c.m.Mll710pApplication     : {"timestamp":"2023-08-16T02:02:33.319+00:00","status":400,"error":"Bad Request","path":"/tcp/downDataToClient"}
2023-08-16 10:02:43.323 - INFO  [         task-1] c.h.c.m.Mll710pApplication     : 发送查询数据请求!完成
2023-08-16 10:02:43.324 - INFO  [         task-1] c.h.c.m.Mll710pApplication     : 发送查询数据请求!
2023-08-16 10:02:43.333 - INFO  [         task-1] c.h.c.m.Mll710pApplication     : 发送查询请求，url：http://127.0.0.1:8080/tcp/downDataToClient，参数：{"cmds":"[15 03 00 10 00 0E C6 DF, 16 03 00 10 00 0E C6 EC, 17 03 00 10 00 0E C7 3D]","time":1692151363326,"client":"ML_L701P","ip":"10.11.21.99","port":10001}
2023-08-16 10:02:43.334 - INFO  [         task-1] c.h.c.m.Mll710pApplication     : {"timestamp":"2023-08-16T02:02:43.331+00:00","status":400,"error":"Bad Request","path":"/tcp/downDataToClient"}
2023-08-16 10:02:53.334 - INFO  [         task-1] c.h.c.m.Mll710pApplication     : 发送查询数据请求!完成
2023-08-16 10:02:53.335 - INFO  [         task-1] c.h.c.m.Mll710pApplication     : 发送查询数据请求!
2023-08-16 10:02:53.348 - INFO  [         task-1] c.h.c.m.Mll710pApplication     : 发送查询请求，url：http://127.0.0.1:8080/tcp/downDataToClient，参数：{"cmds":"[15 03 00 10 00 0E C6 DF, 16 03 00 10 00 0E C6 EC, 17 03 00 10 00 0E C7 3D]","time":1692151373338,"client":"ML_L701P","ip":"10.11.21.99","port":10001}
2023-08-16 10:02:53.350 - INFO  [         task-1] c.h.c.m.Mll710pApplication     : {"timestamp":"2023-08-16T02:02:53.347+00:00","status":400,"error":"Bad Request","path":"/tcp/downDataToClient"}
2023-08-16 10:03:03.351 - INFO  [         task-1] c.h.c.m.Mll710pApplication     : 发送查询数据请求!完成
2023-08-16 10:03:03.351 - INFO  [         task-1] c.h.c.m.Mll710pApplication     : 发送查询数据请求!
2023-08-16 10:03:03.362 - INFO  [         task-1] c.h.c.m.Mll710pApplication     : 发送查询请求，url：http://127.0.0.1:8080/tcp/downDataToClient，参数：{"cmds":"[15 03 00 10 00 0E C6 DF, 16 03 00 10 00 0E C6 EC, 17 03 00 10 00 0E C7 3D]","time":1692151383354,"client":"ML_L701P","ip":"10.11.21.99","port":10001}
2023-08-16 10:03:03.363 - INFO  [         task-1] c.h.c.m.Mll710pApplication     : {"timestamp":"2023-08-16T02:03:03.360+00:00","status":400,"error":"Bad Request","path":"/tcp/downDataToClient"}
2023-08-16 10:03:13.365 - INFO  [         task-1] c.h.c.m.Mll710pApplication     : 发送查询数据请求!完成
2023-08-16 10:03:13.366 - INFO  [         task-1] c.h.c.m.Mll710pApplication     : 发送查询数据请求!
2023-08-16 10:03:13.376 - INFO  [         task-1] c.h.c.m.Mll710pApplication     : 发送查询请求，url：http://127.0.0.1:8080/tcp/downDataToClient，参数：{"cmds":"[15 03 00 10 00 0E C6 DF, 16 03 00 10 00 0E C6 EC, 17 03 00 10 00 0E C7 3D]","time":1692151393368,"client":"ML_L701P","ip":"10.11.21.99","port":10001}
2023-08-16 10:03:13.376 - INFO  [         task-1] c.h.c.m.Mll710pApplication     : {"timestamp":"2023-08-16T02:03:13.373+00:00","status":400,"error":"Bad Request","path":"/tcp/downDataToClient"}
2023-08-16 10:03:23.378 - INFO  [         task-1] c.h.c.m.Mll710pApplication     : 发送查询数据请求!完成
2023-08-16 10:03:23.379 - INFO  [         task-1] c.h.c.m.Mll710pApplication     : 发送查询数据请求!
2023-08-16 10:03:23.388 - INFO  [         task-1] c.h.c.m.Mll710pApplication     : 发送查询请求，url：http://127.0.0.1:8080/tcp/downDataToClient，参数：{"cmds":"[15 03 00 10 00 0E C6 DF, 16 03 00 10 00 0E C6 EC, 17 03 00 10 00 0E C7 3D]","time":1692151403381,"client":"ML_L701P","ip":"10.11.21.99","port":10001}
2023-08-16 10:03:23.389 - INFO  [         task-1] c.h.c.m.Mll710pApplication     : {"timestamp":"2023-08-16T02:03:23.386+00:00","status":400,"error":"Bad Request","path":"/tcp/downDataToClient"}
2023-08-16 10:03:33.390 - INFO  [         task-1] c.h.c.m.Mll710pApplication     : 发送查询数据请求!完成
2023-08-16 10:03:33.391 - INFO  [         task-1] c.h.c.m.Mll710pApplication     : 发送查询数据请求!
2023-08-16 10:03:33.399 - INFO  [         task-1] c.h.c.m.Mll710pApplication     : 发送查询请求，url：http://127.0.0.1:8080/tcp/downDataToClient，参数：{"cmds":"[15 03 00 10 00 0E C6 DF, 16 03 00 10 00 0E C6 EC, 17 03 00 10 00 0E C7 3D]","time":1692151413393,"client":"ML_L701P","ip":"10.11.21.99","port":10001}
2023-08-16 10:03:33.400 - INFO  [         task-1] c.h.c.m.Mll710pApplication     : {"timestamp":"2023-08-16T02:03:33.398+00:00","status":400,"error":"Bad Request","path":"/tcp/downDataToClient"}
2023-08-16 10:03:43.402 - INFO  [         task-1] c.h.c.m.Mll710pApplication     : 发送查询数据请求!完成
2023-08-16 10:03:43.403 - INFO  [         task-1] c.h.c.m.Mll710pApplication     : 发送查询数据请求!
2023-08-16 10:03:43.411 - INFO  [         task-1] c.h.c.m.Mll710pApplication     : 发送查询请求，url：http://127.0.0.1:8080/tcp/downDataToClient，参数：{"cmds":"[15 03 00 10 00 0E C6 DF, 16 03 00 10 00 0E C6 EC, 17 03 00 10 00 0E C7 3D]","time":1692151423404,"client":"ML_L701P","ip":"10.11.21.99","port":10001}
2023-08-16 10:03:43.412 - INFO  [         task-1] c.h.c.m.Mll710pApplication     : {"timestamp":"2023-08-16T02:03:43.409+00:00","status":400,"error":"Bad Request","path":"/tcp/downDataToClient"}
2023-08-16 10:03:53.414 - INFO  [         task-1] c.h.c.m.Mll710pApplication     : 发送查询数据请求!完成
2023-08-16 10:03:53.417 - INFO  [         task-1] c.h.c.m.Mll710pApplication     : 发送查询数据请求!
2023-08-16 10:03:53.430 - INFO  [         task-1] c.h.c.m.Mll710pApplication     : 发送查询请求，url：http://127.0.0.1:8080/tcp/downDataToClient，参数：{"cmds":"[15 03 00 10 00 0E C6 DF, 16 03 00 10 00 0E C6 EC, 17 03 00 10 00 0E C7 3D]","time":1692151433419,"client":"ML_L701P","ip":"10.11.21.99","port":10001}
2023-08-16 10:03:53.432 - INFO  [         task-1] c.h.c.m.Mll710pApplication     : {"timestamp":"2023-08-16T02:03:53.429+00:00","status":400,"error":"Bad Request","path":"/tcp/downDataToClient"}
2023-08-16 10:04:03.434 - INFO  [         task-1] c.h.c.m.Mll710pApplication     : 发送查询数据请求!完成
2023-08-16 10:04:03.435 - INFO  [         task-1] c.h.c.m.Mll710pApplication     : 发送查询数据请求!
2023-08-16 10:04:03.446 - INFO  [         task-1] c.h.c.m.Mll710pApplication     : 发送查询请求，url：http://127.0.0.1:8080/tcp/downDataToClient，参数：{"cmds":"[15 03 00 10 00 0E C6 DF, 16 03 00 10 00 0E C6 EC, 17 03 00 10 00 0E C7 3D]","time":1692151443438,"client":"ML_L701P","ip":"10.11.21.99","port":10001}
2023-08-16 10:04:03.448 - INFO  [         task-1] c.h.c.m.Mll710pApplication     : {"timestamp":"2023-08-16T02:04:03.444+00:00","status":400,"error":"Bad Request","path":"/tcp/downDataToClient"}
2023-08-16 10:04:13.449 - INFO  [         task-1] c.h.c.m.Mll710pApplication     : 发送查询数据请求!完成
2023-08-16 10:04:13.450 - INFO  [         task-1] c.h.c.m.Mll710pApplication     : 发送查询数据请求!
2023-08-16 10:04:13.461 - INFO  [         task-1] c.h.c.m.Mll710pApplication     : 发送查询请求，url：http://127.0.0.1:8080/tcp/downDataToClient，参数：{"cmds":"[15 03 00 10 00 0E C6 DF, 16 03 00 10 00 0E C6 EC, 17 03 00 10 00 0E C7 3D]","time":1692151453454,"client":"ML_L701P","ip":"10.11.21.99","port":10001}
2023-08-16 10:04:13.462 - INFO  [         task-1] c.h.c.m.Mll710pApplication     : {"timestamp":"2023-08-16T02:04:13.459+00:00","status":400,"error":"Bad Request","path":"/tcp/downDataToClient"}
2023-08-16 10:04:23.463 - INFO  [         task-1] c.h.c.m.Mll710pApplication     : 发送查询数据请求!完成
2023-08-16 10:04:23.464 - INFO  [         task-1] c.h.c.m.Mll710pApplication     : 发送查询数据请求!
2023-08-16 10:04:23.475 - INFO  [         task-1] c.h.c.m.Mll710pApplication     : 发送查询请求，url：http://127.0.0.1:8080/tcp/downDataToClient，参数：{"cmds":"[15 03 00 10 00 0E C6 DF, 16 03 00 10 00 0E C6 EC, 17 03 00 10 00 0E C7 3D]","time":1692151463467,"client":"ML_L701P","ip":"10.11.21.99","port":10001}
2023-08-16 10:04:23.475 - INFO  [         task-1] c.h.c.m.Mll710pApplication     : {"timestamp":"2023-08-16T02:04:23.472+00:00","status":400,"error":"Bad Request","path":"/tcp/downDataToClient"}
2023-08-16 10:04:33.477 - INFO  [         task-1] c.h.c.m.Mll710pApplication     : 发送查询数据请求!完成
2023-08-16 10:04:33.477 - INFO  [         task-1] c.h.c.m.Mll710pApplication     : 发送查询数据请求!
2023-08-16 10:04:33.487 - INFO  [         task-1] c.h.c.m.Mll710pApplication     : 发送查询请求，url：http://127.0.0.1:8080/tcp/downDataToClient，参数：{"cmds":"[15 03 00 10 00 0E C6 DF, 16 03 00 10 00 0E C6 EC, 17 03 00 10 00 0E C7 3D]","time":1692151473480,"client":"ML_L701P","ip":"10.11.21.99","port":10001}
2023-08-16 10:04:33.488 - INFO  [         task-1] c.h.c.m.Mll710pApplication     : {"timestamp":"2023-08-16T02:04:33.486+00:00","status":400,"error":"Bad Request","path":"/tcp/downDataToClient"}
2023-08-16 10:04:43.491 - INFO  [         task-1] c.h.c.m.Mll710pApplication     : 发送查询数据请求!完成
2023-08-16 10:04:43.492 - INFO  [         task-1] c.h.c.m.Mll710pApplication     : 发送查询数据请求!
2023-08-16 10:04:43.500 - INFO  [         task-1] c.h.c.m.Mll710pApplication     : 发送查询请求，url：http://127.0.0.1:8080/tcp/downDataToClient，参数：{"cmds":"[15 03 00 10 00 0E C6 DF, 16 03 00 10 00 0E C6 EC, 17 03 00 10 00 0E C7 3D]","time":1692151483494,"client":"ML_L701P","ip":"10.11.21.99","port":10001}
2023-08-16 10:04:43.500 - INFO  [         task-1] c.h.c.m.Mll710pApplication     : {"timestamp":"2023-08-16T02:04:43.498+00:00","status":400,"error":"Bad Request","path":"/tcp/downDataToClient"}
2023-08-16 10:04:53.510 - INFO  [         task-1] c.h.c.m.Mll710pApplication     : 发送查询数据请求!完成
2023-08-16 10:04:53.542 - INFO  [         task-1] c.h.c.m.Mll710pApplication     : 发送查询数据请求!
2023-08-16 10:04:53.580 - INFO  [         task-1] c.h.c.m.Mll710pApplication     : 发送查询请求，url：http://127.0.0.1:8080/tcp/downDataToClient，参数：{"cmds":"[15 03 00 10 00 0E C6 DF, 16 03 00 10 00 0E C6 EC, 17 03 00 10 00 0E C7 3D]","time":1692151493549,"client":"ML_L701P","ip":"10.11.21.99","port":10001}
2023-08-16 10:04:53.582 - INFO  [         task-1] c.h.c.m.Mll710pApplication     : {"timestamp":"2023-08-16T02:04:53.579+00:00","status":400,"error":"Bad Request","path":"/tcp/downDataToClient"}
2023-08-16 10:05:03.583 - INFO  [         task-1] c.h.c.m.Mll710pApplication     : 发送查询数据请求!完成
2023-08-16 10:05:03.583 - INFO  [         task-1] c.h.c.m.Mll710pApplication     : 发送查询数据请求!
2023-08-16 10:05:03.594 - INFO  [         task-1] c.h.c.m.Mll710pApplication     : 发送查询请求，url：http://127.0.0.1:8080/tcp/downDataToClient，参数：{"cmds":"[15 03 00 10 00 0E C6 DF, 16 03 00 10 00 0E C6 EC, 17 03 00 10 00 0E C7 3D]","time":1692151503586,"client":"ML_L701P","ip":"10.11.21.99","port":10001}
2023-08-16 10:05:03.594 - INFO  [         task-1] c.h.c.m.Mll710pApplication     : {"timestamp":"2023-08-16T02:05:03.592+00:00","status":400,"error":"Bad Request","path":"/tcp/downDataToClient"}
2023-08-16 10:05:13.596 - INFO  [         task-1] c.h.c.m.Mll710pApplication     : 发送查询数据请求!完成
2023-08-16 10:05:13.596 - INFO  [         task-1] c.h.c.m.Mll710pApplication     : 发送查询数据请求!
2023-08-16 10:05:13.604 - INFO  [         task-1] c.h.c.m.Mll710pApplication     : 发送查询请求，url：http://127.0.0.1:8080/tcp/downDataToClient，参数：{"cmds":"[15 03 00 10 00 0E C6 DF, 16 03 00 10 00 0E C6 EC, 17 03 00 10 00 0E C7 3D]","time":1692151513598,"client":"ML_L701P","ip":"10.11.21.99","port":10001}
2023-08-16 10:05:13.605 - INFO  [         task-1] c.h.c.m.Mll710pApplication     : {"timestamp":"2023-08-16T02:05:13.603+00:00","status":400,"error":"Bad Request","path":"/tcp/downDataToClient"}
2023-08-16 10:05:23.607 - INFO  [         task-1] c.h.c.m.Mll710pApplication     : 发送查询数据请求!完成
2023-08-16 10:05:23.608 - INFO  [         task-1] c.h.c.m.Mll710pApplication     : 发送查询数据请求!
2023-08-16 10:05:23.616 - INFO  [         task-1] c.h.c.m.Mll710pApplication     : 发送查询请求，url：http://127.0.0.1:8080/tcp/downDataToClient，参数：{"cmds":"[15 03 00 10 00 0E C6 DF, 16 03 00 10 00 0E C6 EC, 17 03 00 10 00 0E C7 3D]","time":1692151523609,"client":"ML_L701P","ip":"10.11.21.99","port":10001}
2023-08-16 10:05:23.617 - INFO  [         task-1] c.h.c.m.Mll710pApplication     : {"timestamp":"2023-08-16T02:05:23.615+00:00","status":400,"error":"Bad Request","path":"/tcp/downDataToClient"}
2023-08-16 10:05:33.617 - INFO  [         task-1] c.h.c.m.Mll710pApplication     : 发送查询数据请求!完成
2023-08-16 10:05:33.617 - INFO  [         task-1] c.h.c.m.Mll710pApplication     : 发送查询数据请求!
2023-08-16 10:05:33.626 - INFO  [         task-1] c.h.c.m.Mll710pApplication     : 发送查询请求，url：http://127.0.0.1:8080/tcp/downDataToClient，参数：{"cmds":"[15 03 00 10 00 0E C6 DF, 16 03 00 10 00 0E C6 EC, 17 03 00 10 00 0E C7 3D]","time":1692151533620,"client":"ML_L701P","ip":"10.11.21.99","port":10001}
2023-08-16 10:05:33.627 - INFO  [         task-1] c.h.c.m.Mll710pApplication     : {"timestamp":"2023-08-16T02:05:33.625+00:00","status":400,"error":"Bad Request","path":"/tcp/downDataToClient"}
2023-08-16 10:05:43.628 - INFO  [         task-1] c.h.c.m.Mll710pApplication     : 发送查询数据请求!完成
2023-08-16 10:05:43.628 - INFO  [         task-1] c.h.c.m.Mll710pApplication     : 发送查询数据请求!
2023-08-16 10:05:43.638 - INFO  [         task-1] c.h.c.m.Mll710pApplication     : 发送查询请求，url：http://127.0.0.1:8080/tcp/downDataToClient，参数：{"cmds":"[15 03 00 10 00 0E C6 DF, 16 03 00 10 00 0E C6 EC, 17 03 00 10 00 0E C7 3D]","time":1692151543631,"client":"ML_L701P","ip":"10.11.21.99","port":10001}
2023-08-16 10:05:43.639 - INFO  [         task-1] c.h.c.m.Mll710pApplication     : {"timestamp":"2023-08-16T02:05:43.637+00:00","status":400,"error":"Bad Request","path":"/tcp/downDataToClient"}
2023-08-16 10:05:53.641 - INFO  [         task-1] c.h.c.m.Mll710pApplication     : 发送查询数据请求!完成
2023-08-16 10:05:53.642 - INFO  [         task-1] c.h.c.m.Mll710pApplication     : 发送查询数据请求!
2023-08-16 10:05:53.651 - INFO  [         task-1] c.h.c.m.Mll710pApplication     : 发送查询请求，url：http://127.0.0.1:8080/tcp/downDataToClient，参数：{"cmds":"[15 03 00 10 00 0E C6 DF, 16 03 00 10 00 0E C6 EC, 17 03 00 10 00 0E C7 3D]","time":1692151553644,"client":"ML_L701P","ip":"10.11.21.99","port":10001}
2023-08-16 10:05:53.651 - INFO  [         task-1] c.h.c.m.Mll710pApplication     : {"timestamp":"2023-08-16T02:05:53.649+00:00","status":400,"error":"Bad Request","path":"/tcp/downDataToClient"}
2023-08-16 10:06:03.653 - INFO  [         task-1] c.h.c.m.Mll710pApplication     : 发送查询数据请求!完成
2023-08-16 10:06:03.653 - INFO  [         task-1] c.h.c.m.Mll710pApplication     : 发送查询数据请求!
2023-08-16 10:06:03.663 - INFO  [         task-1] c.h.c.m.Mll710pApplication     : 发送查询请求，url：http://127.0.0.1:8080/tcp/downDataToClient，参数：{"cmds":"[15 03 00 10 00 0E C6 DF, 16 03 00 10 00 0E C6 EC, 17 03 00 10 00 0E C7 3D]","time":1692151563655,"client":"ML_L701P","ip":"10.11.21.99","port":10001}
2023-08-16 10:06:03.664 - INFO  [         task-1] c.h.c.m.Mll710pApplication     : {"timestamp":"2023-08-16T02:06:03.661+00:00","status":400,"error":"Bad Request","path":"/tcp/downDataToClient"}
2023-08-16 10:06:13.666 - INFO  [         task-1] c.h.c.m.Mll710pApplication     : 发送查询数据请求!完成
2023-08-16 10:06:13.666 - INFO  [         task-1] c.h.c.m.Mll710pApplication     : 发送查询数据请求!
2023-08-16 10:06:13.674 - INFO  [         task-1] c.h.c.m.Mll710pApplication     : 发送查询请求，url：http://127.0.0.1:8080/tcp/downDataToClient，参数：{"cmds":"[15 03 00 10 00 0E C6 DF, 16 03 00 10 00 0E C6 EC, 17 03 00 10 00 0E C7 3D]","time":1692151573669,"client":"ML_L701P","ip":"10.11.21.99","port":10001}
2023-08-16 10:06:13.675 - INFO  [         task-1] c.h.c.m.Mll710pApplication     : {"timestamp":"2023-08-16T02:06:13.673+00:00","status":400,"error":"Bad Request","path":"/tcp/downDataToClient"}
2023-08-16 10:06:23.676 - INFO  [         task-1] c.h.c.m.Mll710pApplication     : 发送查询数据请求!完成
2023-08-16 10:06:23.676 - INFO  [         task-1] c.h.c.m.Mll710pApplication     : 发送查询数据请求!
2023-08-16 10:06:23.686 - INFO  [         task-1] c.h.c.m.Mll710pApplication     : 发送查询请求，url：http://127.0.0.1:8080/tcp/downDataToClient，参数：{"cmds":"[15 03 00 10 00 0E C6 DF, 16 03 00 10 00 0E C6 EC, 17 03 00 10 00 0E C7 3D]","time":1692151583679,"client":"ML_L701P","ip":"10.11.21.99","port":10001}
2023-08-16 10:06:23.687 - INFO  [         task-1] c.h.c.m.Mll710pApplication     : {"timestamp":"2023-08-16T02:06:23.685+00:00","status":400,"error":"Bad Request","path":"/tcp/downDataToClient"}
2023-08-16 10:06:33.688 - INFO  [         task-1] c.h.c.m.Mll710pApplication     : 发送查询数据请求!完成
2023-08-16 10:06:33.689 - INFO  [         task-1] c.h.c.m.Mll710pApplication     : 发送查询数据请求!
2023-08-16 10:06:33.727 - INFO  [         task-1] c.h.c.m.Mll710pApplication     : 发送查询请求，url：http://127.0.0.1:8080/tcp/downDataToClient，参数：{"cmds":"[15 03 00 10 00 0E C6 DF, 16 03 00 10 00 0E C6 EC, 17 03 00 10 00 0E C7 3D]","time":1692151593718,"client":"ML_L701P","ip":"10.11.21.99","port":10001}
2023-08-16 10:06:33.846 - INFO  [         task-1] c.h.c.m.Mll710pApplication     : {"timestamp":"2023-08-16T02:06:33.724+00:00","status":400,"error":"Bad Request","path":"/tcp/downDataToClient"}
2023-08-16 10:06:44.219 - INFO  [         task-1] c.h.c.m.Mll710pApplication     : 发送查询数据请求!完成
2023-08-16 10:06:44.220 - INFO  [         task-1] c.h.c.m.Mll710pApplication     : 发送查询数据请求!
2023-08-16 10:06:44.228 - INFO  [         task-1] c.h.c.m.Mll710pApplication     : 发送查询请求，url：http://127.0.0.1:8080/tcp/downDataToClient，参数：{"cmds":"[15 03 00 10 00 0E C6 DF, 16 03 00 10 00 0E C6 EC, 17 03 00 10 00 0E C7 3D]","time":1692151604221,"client":"ML_L701P","ip":"10.11.21.99","port":10001}
2023-08-16 10:06:44.229 - INFO  [         task-1] c.h.c.m.Mll710pApplication     : {"timestamp":"2023-08-16T02:06:44.226+00:00","status":400,"error":"Bad Request","path":"/tcp/downDataToClient"}
2023-08-16 10:06:54.230 - INFO  [         task-1] c.h.c.m.Mll710pApplication     : 发送查询数据请求!完成
2023-08-16 10:06:54.231 - INFO  [         task-1] c.h.c.m.Mll710pApplication     : 发送查询数据请求!
2023-08-16 10:06:54.241 - INFO  [         task-1] c.h.c.m.Mll710pApplication     : 发送查询请求，url：http://127.0.0.1:8080/tcp/downDataToClient，参数：{"cmds":"[15 03 00 10 00 0E C6 DF, 16 03 00 10 00 0E C6 EC, 17 03 00 10 00 0E C7 3D]","time":1692151614233,"client":"ML_L701P","ip":"10.11.21.99","port":10001}
2023-08-16 10:06:54.242 - INFO  [         task-1] c.h.c.m.Mll710pApplication     : {"timestamp":"2023-08-16T02:06:54.240+00:00","status":400,"error":"Bad Request","path":"/tcp/downDataToClient"}
2023-08-16 10:07:04.247 - INFO  [         task-1] c.h.c.m.Mll710pApplication     : 发送查询数据请求!完成
2023-08-16 10:07:04.248 - INFO  [         task-1] c.h.c.m.Mll710pApplication     : 发送查询数据请求!
2023-08-16 10:07:04.500 - INFO  [         task-1] c.h.c.m.Mll710pApplication     : 发送查询请求，url：http://127.0.0.1:8080/tcp/downDataToClient，参数：{"cmds":"[15 03 00 10 00 0E C6 DF, 16 03 00 10 00 0E C6 EC, 17 03 00 10 00 0E C7 3D]","time":1692151624492,"client":"ML_L701P","ip":"10.11.21.99","port":10001}
2023-08-16 10:07:04.502 - INFO  [         task-1] c.h.c.m.Mll710pApplication     : {"timestamp":"2023-08-16T02:07:04.498+00:00","status":400,"error":"Bad Request","path":"/tcp/downDataToClient"}
2023-08-16 10:07:14.502 - INFO  [         task-1] c.h.c.m.Mll710pApplication     : 发送查询数据请求!完成
2023-08-16 10:07:14.503 - INFO  [         task-1] c.h.c.m.Mll710pApplication     : 发送查询数据请求!
2023-08-16 10:07:14.512 - INFO  [         task-1] c.h.c.m.Mll710pApplication     : 发送查询请求，url：http://127.0.0.1:8080/tcp/downDataToClient，参数：{"cmds":"[15 03 00 10 00 0E C6 DF, 16 03 00 10 00 0E C6 EC, 17 03 00 10 00 0E C7 3D]","time":1692151634505,"client":"ML_L701P","ip":"10.11.21.99","port":10001}
2023-08-16 10:07:14.513 - INFO  [         task-1] c.h.c.m.Mll710pApplication     : {"timestamp":"2023-08-16T02:07:14.511+00:00","status":400,"error":"Bad Request","path":"/tcp/downDataToClient"}
2023-08-16 10:07:24.514 - INFO  [         task-1] c.h.c.m.Mll710pApplication     : 发送查询数据请求!完成
2023-08-16 10:07:24.514 - INFO  [         task-1] c.h.c.m.Mll710pApplication     : 发送查询数据请求!
2023-08-16 10:07:24.525 - INFO  [         task-1] c.h.c.m.Mll710pApplication     : 发送查询请求，url：http://127.0.0.1:8080/tcp/downDataToClient，参数：{"cmds":"[15 03 00 10 00 0E C6 DF, 16 03 00 10 00 0E C6 EC, 17 03 00 10 00 0E C7 3D]","time":1692151644517,"client":"ML_L701P","ip":"10.11.21.99","port":10001}
2023-08-16 10:07:24.526 - INFO  [         task-1] c.h.c.m.Mll710pApplication     : {"timestamp":"2023-08-16T02:07:24.523+00:00","status":400,"error":"Bad Request","path":"/tcp/downDataToClient"}
2023-08-16 10:07:34.526 - INFO  [         task-1] c.h.c.m.Mll710pApplication     : 发送查询数据请求!完成
2023-08-16 10:07:34.528 - INFO  [         task-1] c.h.c.m.Mll710pApplication     : 发送查询数据请求!
2023-08-16 10:07:34.537 - INFO  [         task-1] c.h.c.m.Mll710pApplication     : 发送查询请求，url：http://127.0.0.1:8080/tcp/downDataToClient，参数：{"cmds":"[15 03 00 10 00 0E C6 DF, 16 03 00 10 00 0E C6 EC, 17 03 00 10 00 0E C7 3D]","time":1692151654529,"client":"ML_L701P","ip":"10.11.21.99","port":10001}
2023-08-16 10:07:34.538 - INFO  [         task-1] c.h.c.m.Mll710pApplication     : {"timestamp":"2023-08-16T02:07:34.536+00:00","status":400,"error":"Bad Request","path":"/tcp/downDataToClient"}
2023-08-16 10:07:44.540 - INFO  [         task-1] c.h.c.m.Mll710pApplication     : 发送查询数据请求!完成
2023-08-16 10:07:44.540 - INFO  [         task-1] c.h.c.m.Mll710pApplication     : 发送查询数据请求!
2023-08-16 10:07:44.549 - INFO  [         task-1] c.h.c.m.Mll710pApplication     : 发送查询请求，url：http://127.0.0.1:8080/tcp/downDataToClient，参数：{"cmds":"[15 03 00 10 00 0E C6 DF, 16 03 00 10 00 0E C6 EC, 17 03 00 10 00 0E C7 3D]","time":1692151664542,"client":"ML_L701P","ip":"10.11.21.99","port":10001}
2023-08-16 10:07:44.550 - INFO  [         task-1] c.h.c.m.Mll710pApplication     : {"timestamp":"2023-08-16T02:07:44.548+00:00","status":400,"error":"Bad Request","path":"/tcp/downDataToClient"}
2023-08-16 10:07:54.551 - INFO  [         task-1] c.h.c.m.Mll710pApplication     : 发送查询数据请求!完成
2023-08-16 10:07:54.551 - INFO  [         task-1] c.h.c.m.Mll710pApplication     : 发送查询数据请求!
2023-08-16 10:07:54.560 - INFO  [         task-1] c.h.c.m.Mll710pApplication     : 发送查询请求，url：http://127.0.0.1:8080/tcp/downDataToClient，参数：{"cmds":"[15 03 00 10 00 0E C6 DF, 16 03 00 10 00 0E C6 EC, 17 03 00 10 00 0E C7 3D]","time":1692151674553,"client":"ML_L701P","ip":"10.11.21.99","port":10001}
2023-08-16 10:07:54.561 - INFO  [         task-1] c.h.c.m.Mll710pApplication     : {"timestamp":"2023-08-16T02:07:54.559+00:00","status":400,"error":"Bad Request","path":"/tcp/downDataToClient"}
2023-08-16 10:08:04.562 - INFO  [         task-1] c.h.c.m.Mll710pApplication     : 发送查询数据请求!完成
2023-08-16 10:08:04.563 - INFO  [         task-1] c.h.c.m.Mll710pApplication     : 发送查询数据请求!
2023-08-16 10:08:04.572 - INFO  [         task-1] c.h.c.m.Mll710pApplication     : 发送查询请求，url：http://127.0.0.1:8080/tcp/downDataToClient，参数：{"cmds":"[15 03 00 10 00 0E C6 DF, 16 03 00 10 00 0E C6 EC, 17 03 00 10 00 0E C7 3D]","time":1692151684565,"client":"ML_L701P","ip":"10.11.21.99","port":10001}
2023-08-16 10:08:04.573 - INFO  [         task-1] c.h.c.m.Mll710pApplication     : {"timestamp":"2023-08-16T02:08:04.570+00:00","status":400,"error":"Bad Request","path":"/tcp/downDataToClient"}
2023-08-16 10:08:14.575 - INFO  [         task-1] c.h.c.m.Mll710pApplication     : 发送查询数据请求!完成
2023-08-16 10:08:14.576 - INFO  [         task-1] c.h.c.m.Mll710pApplication     : 发送查询数据请求!
